2023-02-03 11:00:20.476 DEBUG (SyncWorker_25) [pymodbus.transaction] Running transaction 680
2023-02-03 11:00:20.477 DEBUG (SyncWorker_25) [pymodbus.transaction] SEND: 0x2 0xa8 0x0 0x0 0x0 0x6 0x0 0x4 0x1 0x7c 0x0 0x2
2023-02-03 11:00:20.477 DEBUG (SyncWorker_25) [pymodbus.client.base] New Transaction state "SENDING"
2023-02-03 11:00:20.477 DEBUG (SyncWorker_25) [pymodbus.transaction] Changing transaction state from "SENDING" to "WAITING FOR REPLY"
2023-02-03 11:00:23.481 DEBUG (SyncWorker_25) [pymodbus.transaction] No response received to unbounded read !!!!
2023-02-03 11:00:23.481 DEBUG (SyncWorker_25) [pymodbus.transaction] Changing transaction state from "WAITING FOR REPLY" to "PROCESSING REPLY"
2023-02-03 11:00:23.481 DEBUG (SyncWorker_25) [pymodbus.transaction] RECV: 
2023-02-03 11:00:23.481 DEBUG (SyncWorker_25) [pymodbus.framer.socket_framer] Processing: 
2023-02-03 11:00:23.482 DEBUG (SyncWorker_25) [pymodbus.transaction] Getting transaction 680
2023-02-03 11:00:23.483 DEBUG (SyncWorker_25) [pymodbus.transaction] Changing transaction state from "PROCESSING REPLY" to "TRANSACTION_COMPLETE"
2023-02-03 11:00:23.483 ERROR (SyncWorker_25) [homeassistant.components.modbus.modbus] Pymodbus: Waveshare Meterkast: Modbus Error: [Input/Output] No Response received from the remote unit/Unable to decode response
2023-02-03 11:00:23.699 DEBUG (SyncWorker_24) [pymodbus.client.tcp] Connection to Modbus server established. Socket ('192.168.16.140', 42914)
2023-02-03 11:00:23.699 DEBUG (SyncWorker_24) [pymodbus.transaction] Current transaction state - TRANSACTION_COMPLETE
2023-02-03 11:00:23.699 DEBUG (SyncWorker_24) [pymodbus.transaction] Running transaction 681
2023-02-03 11:00:23.699 DEBUG (SyncWorker_24) [pymodbus.transaction] SEND: 0x2 0xa9 0x0 0x0 0x0 0x6 0x1 0x4 0x0 0x34 0x0 0x2
2023-02-03 11:00:23.700 DEBUG (SyncWorker_24) [pymodbus.client.base] New Transaction state "SENDING"
2023-02-03 11:00:23.701 DEBUG (SyncWorker_24) [pymodbus.transaction] Changing transaction state from "SENDING" to "WAITING FOR REPLY"
2023-02-03 11:00:23.739 DEBUG (SyncWorker_24) [pymodbus.transaction] Changing transaction state from "WAITING FOR REPLY" to "PROCESSING REPLY"
2023-02-03 11:00:23.740 DEBUG (SyncWorker_24) [pymodbus.transaction] RECV: 0x2 0xa9 0x0 0x0 0x0 0x7 0x1 0x4 0x4 0x43 0xdf 0xed 0xc1
2023-02-03 11:00:23.740 DEBUG (SyncWorker_24) [pymodbus.framer.socket_framer] Processing: 0x2 0xa9 0x0 0x0 0x0 0x7 0x1 0x4 0x4 0x43 0xdf 0xed 0xc1
2023-02-03 11:00:23.740 DEBUG (SyncWorker_24) [pymodbus.factory] Factory Response[ReadInputRegistersResponse': 4]
2023-02-03 11:00:23.741 DEBUG (SyncWorker_24) [pymodbus.transaction] Adding transaction 681
2023-02-03 11:00:23.741 DEBUG (SyncWorker_24) [pymodbus.transaction] Getting transaction 681
2023-02-03 11:00:23.741 DEBUG (SyncWorker_24) [pymodbus.transaction] Changing transaction state from "PROCESSING REPLY" to "TRANSACTION_COMPLETE"
2023-02-03 11:00:23.945 DEBUG (SyncWorker_37) [pymodbus.transaction] Current transaction state - TRANSACTION_COMPLETE
2023-02-03 11:00:23.945 DEBUG (SyncWorker_37) [pymodbus.transaction] Running transaction 682
2023-02-03 11:00:23.946 DEBUG (SyncWorker_37) [pymodbus.transaction] SEND: 0x2 0xaa 0x0 0x0 0x0 0x6 0x1 0x4 0x0 0x48 0x0 0x2
2023-02-03 11:00:23.946 DEBUG (SyncWorker_37) [pymodbus.client.base] New Transaction state "SENDING"
2023-02-03 11:00:23.946 DEBUG (SyncWorker_37) [pymodbus.transaction] Changing transaction state from "SENDING" to "WAITING FOR REPLY"
2023-02-03 11:00:23.989 DEBUG (SyncWorker_37) [pymodbus.transaction] Changing transaction state from "WAITING FOR REPLY" to "PROCESSING REPLY"
2023-02-03 11:00:23.989 DEBUG (SyncWorker_37) [pymodbus.transaction] RECV: 0x2 0xaa 0x0 0x0 0x0 0x7 0x1 0x4 0x4 0x46 0x88 0x5 0xe2
2023-02-03 11:00:23.989 DEBUG (SyncWorker_37) [pymodbus.framer.socket_framer] Processing: 0x2 0xaa 0x0 0x0 0x0 0x7 0x1 0x4 0x4 0x46 0x88 0x5 0xe2
2023-02-03 11:00:23.990 DEBUG (SyncWorker_37) [pymodbus.factory] Factory Response[ReadInputRegistersResponse': 4]
2023-02-03 11:00:23.990 DEBUG (SyncWorker_37) [pymodbus.transaction] Adding transaction 682
2023-02-03 11:00:23.990 DEBUG (SyncWorker_37) [pymodbus.transaction] Getting transaction 682
2023-02-03 11:00:23.990 DEBUG (SyncWorker_37) [pymodbus.transaction] Changing transaction state from "PROCESSING REPLY" to "TRANSACTION_COMPLETE"
2023-02-03 11:00:24.195 DEBUG (SyncWorker_30) [pymodbus.transaction] Current transaction state - TRANSACTION_COMPLETE
2023-02-03 11:00:24.195 DEBUG (SyncWorker_30) [pymodbus.transaction] Running transaction 683
2023-02-03 11:00:24.195 DEBUG (SyncWorker_30) [pymodbus.transaction] SEND: 0x2 0xab 0x0 0x0 0x0 0x6 0x1 0x4 0x0 0x4a 0x0 0x2
2023-02-03 11:00:24.196 DEBUG (SyncWorker_30) [pymodbus.client.base] New Transaction state "SENDING"
2023-02-03 11:00:24.197 DEBUG (SyncWorker_30) [pymodbus.transaction] Changing transaction state from "SENDING" to "WAITING FOR REPLY"
2023-02-03 11:00:24.237 DEBUG (SyncWorker_30) [pymodbus.transaction] Changing transaction state from "WAITING FOR REPLY" to "PROCESSING REPLY"
2023-02-03 11:00:24.237 DEBUG (SyncWorker_30) [pymodbus.transaction] RECV: 0x2 0xab 0x0 0x0 0x0 0x7 0x1 0x4 0x4 0x40 0xa7 0x43 0x96
2023-02-03 11:00:24.238 DEBUG (SyncWorker_30) [pymodbus.framer.socket_framer] Processing: 0x2 0xab 0x0 0x0 0x0 0x7 0x1 0x4 0x4 0x40 0xa7 0x43 0x96
2023-02-03 11:00:24.238 DEBUG (SyncWorker_30) [pymodbus.factory] Factory Response[ReadInputRegistersResponse': 4]
2023-02-03 11:00:24.238 DEBUG (SyncWorker_30) [pymodbus.transaction] Adding transaction 683
2023-02-03 11:00:24.238 DEBUG (SyncWorker_30) [pymodbus.transaction] Getting transaction 683
2023-02-03 11:00:24.239 DEBUG (SyncWorker_30) [pymodbus.transaction] Changing transaction state from "PROCESSING REPLY" to "TRANSACTION_COMPLETE"
2023-02-03 11:00:24.443 DEBUG (SyncWorker_16) [pymodbus.transaction] Current transaction state - TRANSACTION_COMPLETE
2023-02-03 11:00:24.443 DEBUG (SyncWorker_16) [pymodbus.transaction] Running transaction 684
2023-02-03 11:00:24.443 DEBUG (SyncWorker_16) [pymodbus.transaction] SEND: 0x2 0xac 0x0 0x0 0x0 0x6 0x1 0x4 0x0 0x54 0x0 0x2
2023-02-03 11:00:24.443 DEBUG (SyncWorker_16) [pymodbus.client.base] New Transaction state "SENDING"
2023-02-03 11:00:24.444 DEBUG (SyncWorker_16) [pymodbus.transaction] Changing transaction state from "SENDING" to "WAITING FOR REPLY"
2023-02-03 11:00:24.485 DEBUG (SyncWorker_16) [pymodbus.transaction] Changing transaction state from "WAITING FOR REPLY" to "PROCESSING REPLY"
2023-02-03 11:00:24.485 DEBUG (SyncWorker_16) [pymodbus.transaction] RECV: 0x2 0xac 0x0 0x0 0x0 0x7 0x1 0x4 0x4 0x43 0xde 0xb 0x16
2023-02-03 11:00:24.485 DEBUG (SyncWorker_16) [pymodbus.framer.socket_framer] Processing: 0x2 0xac 0x0 0x0 0x0 0x7 0x1 0x4 0x4 0x43 0xde 0xb 0x16
2023-02-03 11:00:24.486 DEBUG (SyncWorker_16) [pymodbus.factory] Factory Response[ReadInputRegistersResponse': 4]
2023-02-03 11:00:24.486 DEBUG (SyncWorker_16) [pymodbus.transaction] Adding transaction 684
2023-02-03 11:00:24.486 DEBUG (SyncWorker_16) [pymodbus.transaction] Getting transaction 684
2023-02-03 11:00:24.486 DEBUG (SyncWorker_16) [pymodbus.transaction] Changing transaction state from "PROCESSING REPLY" to "TRANSACTION_COMPLETE"
2023-02-03 11:00:24.690 DEBUG (SyncWorker_34) [pymodbus.transaction] Current transaction state - TRANSACTION_COMPLETE
2023-02-03 11:00:24.691 DEBUG (SyncWorker_34) [pymodbus.transaction] Running transaction 685
2023-02-03 11:00:24.691 DEBUG (SyncWorker_34) [pymodbus.transaction] SEND: 0x2 0xad 0x0 0x0 0x0 0x6 0x1 0x4 0x1 0x56 0x0 0x2
2023-02-03 11:00:24.691 DEBUG (SyncWorker_34) [pymodbus.client.base] New Transaction state "SENDING"
2023-02-03 11:00:24.698 DEBUG (SyncWorker_34) [pymodbus.transaction] Changing transaction state from "SENDING" to "WAITING FOR REPLY"
2023-02-03 11:00:24.736 DEBUG (SyncWorker_34) [pymodbus.transaction] Changing transaction state from "WAITING FOR REPLY" to "PROCESSING REPLY"
2023-02-03 11:00:24.736 DEBUG (SyncWorker_34) [pymodbus.transaction] RECV: 0x2 0xad 0x0 0x0 0x0 0x7 0x1 0x4 0x4 0x46 0x88 0x10 0x56
2023-02-03 11:00:24.736 DEBUG (SyncWorker_34) [pymodbus.framer.socket_framer] Processing: 0x2 0xad 0x0 0x0 0x0 0x7 0x1 0x4 0x4 0x46 0x88 0x10 0x56
2023-02-03 11:00:24.737 DEBUG (SyncWorker_34) [pymodbus.factory] Factory Response[ReadInputRegistersResponse': 4]
2023-02-03 11:00:24.737 DEBUG (SyncWorker_34) [pymodbus.transaction] Adding transaction 685
2023-02-03 11:00:24.737 DEBUG (SyncWorker_34) [pymodbus.transaction] Getting transaction 685
2023-02-03 11:00:24.737 DEBUG (SyncWorker_34) [pymodbus.transaction] Changing transaction state from "PROCESSING REPLY" to "TRANSACTION_COMPLETE"
2023-02-03 11:00:24.941 DEBUG (SyncWorker_23) [pymodbus.transaction] Current transaction state - TRANSACTION_COMPLETE
2023-02-03 11:00:24.941 DEBUG (SyncWorker_23) [pymodbus.transaction] Running transaction 686
2023-02-03 11:00:24.942 DEBUG (SyncWorker_23) [pymodbus.transaction] SEND: 0x2 0xae 0x0 0x0 0x0 0x6 0x1 0x4 0x0 0x0 0x0 0x2
2023-02-03 11:00:24.942 DEBUG (SyncWorker_23) [pymodbus.client.base] New Transaction state "SENDING"
2023-02-03 11:00:24.943 DEBUG (SyncWorker_23) [pymodbus.transaction] Changing transaction state from "SENDING" to "WAITING FOR REPLY"
2023-02-03 11:00:24.982 DEBUG (SyncWorker_23) [pymodbus.transaction] Changing transaction state from "WAITING FOR REPLY" to "PROCESSING REPLY"
2023-02-03 11:00:24.982 DEBUG (SyncWorker_23) [pymodbus.transaction] RECV: 0x2 0xae 0x0 0x0 0x0 0x7 0x1 0x4 0x4 0x43 0x63 0xa2 0x86
2023-02-03 11:00:24.982 DEBUG (SyncWorker_23) [pymodbus.framer.socket_framer] Processing: 0x2 0xae 0x0 0x0 0x0 0x7 0x1 0x4 0x4 0x43 0x63 0xa2 0x86
2023-02-03 11:00:24.983 DEBUG (SyncWorker_23) [pymodbus.factory] Factory Response[ReadInputRegistersResponse': 4]
2023-02-03 11:00:24.983 DEBUG (SyncWorker_23) [pymodbus.transaction] Adding transaction 686
2023-02-03 11:00:24.983 DEBUG (SyncWorker_23) [pymodbus.transaction] Getting transaction 686
2023-02-03 11:00:24.983 DEBUG (SyncWorker_23) [pymodbus.transaction] Changing transaction state from "PROCESSING REPLY" to "TRANSACTION_COMPLETE"
2023-02-03 11:00:25.190 DEBUG (SyncWorker_7) [pymodbus.transaction] Current transaction state - TRANSACTION_COMPLETE
2023-02-03 11:00:25.190 DEBUG (SyncWorker_7) [pymodbus.transaction] Running transaction 687
2023-02-03 11:00:25.191 DEBUG (SyncWorker_7) [pymodbus.transaction] SEND: 0x2 0xaf 0x0 0x0 0x0 0x6 0x1 0x4 0x0 0x2 0x0 0x2
2023-02-03 11:00:25.191 DEBUG (SyncWorker_7) [pymodbus.client.base] New Transaction state "SENDING"
2023-02-03 11:00:25.191 DEBUG (SyncWorker_7) [pymodbus.transaction] Changing transaction state from "SENDING" to "WAITING FOR REPLY"
2023-02-03 11:00:25.233 DEBUG (SyncWorker_7) [pymodbus.transaction] Changing transaction state from "WAITING FOR REPLY" to "PROCESSING REPLY"
2023-02-03 11:00:25.233 DEBUG (SyncWorker_7) [pymodbus.transaction] RECV: 0x2 0xaf 0x0 0x0 0x0 0x7 0x1 0x4 0x4 0x43 0x64 0xcb 0x4
2023-02-03 11:00:25.234 DEBUG (SyncWorker_7) [pymodbus.framer.socket_framer] Processing: 0x2 0xaf 0x0 0x0 0x0 0x7 0x1 0x4 0x4 0x43 0x64 0xcb 0x4
2023-02-03 11:00:25.234 DEBUG (SyncWorker_7) [pymodbus.factory] Factory Response[ReadInputRegistersResponse': 4]
2023-02-03 11:00:25.234 DEBUG (SyncWorker_7) [pymodbus.transaction] Adding transaction 687
2023-02-03 11:00:25.235 DEBUG (SyncWorker_7) [pymodbus.transaction] Getting transaction 687
2023-02-03 11:00:25.235 DEBUG (SyncWorker_7) [pymodbus.transaction] Changing transaction state from "PROCESSING REPLY" to "TRANSACTION_COMPLETE"
2023-02-03 11:00:25.439 DEBUG (SyncWorker_36) [pymodbus.transaction] Current transaction state - TRANSACTION_COMPLETE
2023-02-03 11:00:25.439 DEBUG (SyncWorker_36) [pymodbus.transaction] Running transaction 688
2023-02-03 11:00:25.440 DEBUG (SyncWorker_36) [pymodbus.transaction] SEND: 0x2 0xb0 0x0 0x0 0x0 0x6 0x1 0x4 0x0 0x4 0x0 0x2
2023-02-03 11:00:25.440 DEBUG (SyncWorker_36) [pymodbus.client.base] New Transaction state "SENDING"
2023-02-03 11:00:25.440 DEBUG (SyncWorker_36) [pymodbus.transaction] Changing transaction state from "SENDING" to "WAITING FOR REPLY"
2023-02-03 11:00:25.480 DEBUG (SyncWorker_36) [pymodbus.transaction] Changing transaction state from "WAITING FOR REPLY" to "PROCESSING REPLY"
2023-02-03 11:00:25.480 DEBUG (SyncWorker_36) [pymodbus.transaction] RECV: 0x2 0xb0 0x0 0x0 0x0 0x7 0x1 0x4 0x4 0x43 0x65 0x3d 0x76
2023-02-03 11:00:25.481 DEBUG (SyncWorker_36) [pymodbus.framer.socket_framer] Processing: 0x2 0xb0 0x0 0x0 0x0 0x7 0x1 0x4 0x4 0x43 0x65 0x3d 0x76
2023-02-03 11:00:25.481 DEBUG (SyncWorker_36) [pymodbus.factory] Factory Response[ReadInputRegistersResponse': 4]
2023-02-03 11:00:25.481 DEBUG (SyncWorker_36) [pymodbus.transaction] Adding transaction 688
2023-02-03 11:00:25.481 DEBUG (SyncWorker_36) [pymodbus.transaction] Getting transaction 688
2023-02-03 11:00:25.481 DEBUG (SyncWorker_36) [pymodbus.transaction] Changing transaction state from "PROCESSING REPLY" to "TRANSACTION_COMPLETE"
2023-02-03 11:00:25.685 DEBUG (SyncWorker_18) [pymodbus.transaction] Current transaction state - TRANSACTION_COMPLETE
2023-02-03 11:00:25.685 DEBUG (SyncWorker_18) [pymodbus.transaction] Running transaction 689
2023-02-03 11:00:25.686 DEBUG (SyncWorker_18) [pymodbus.transaction] SEND: 0x2 0xb1 0x0 0x0 0x0 0x6 0x1 0x4 0x0 0x6 0x0 0x2
2023-02-03 11:00:25.686 DEBUG (SyncWorker_18) [pymodbus.client.base] New Transaction state "SENDING"
2023-02-03 11:00:25.690 DEBUG (SyncWorker_18) [pymodbus.transaction] Changing transaction state from "SENDING" to "WAITING FOR REPLY"
2023-02-03 11:00:25.731 DEBUG (SyncWorker_18) [pymodbus.transaction] Changing transaction state from "WAITING FOR REPLY" to "PROCESSING REPLY"
2023-02-03 11:00:25.731 DEBUG (SyncWorker_18) [pymodbus.transaction] RECV: 0x2 0xb1 0x0 0x0 0x0 0x7 0x1 0x4 0x4 0x3f 0x27 0xca 0xe9
2023-02-03 11:00:25.731 DEBUG (SyncWorker_18) [pymodbus.framer.socket_framer] Processing: 0x2 0xb1 0x0 0x0 0x0 0x7 0x1 0x4 0x4 0x3f 0x27 0xca 0xe9
2023-02-03 11:00:25.732 DEBUG (SyncWorker_18) [pymodbus.factory] Factory Response[ReadInputRegistersResponse': 4]
2023-02-03 11:00:25.732 DEBUG (SyncWorker_18) [pymodbus.transaction] Adding transaction 689
2023-02-03 11:00:25.732 DEBUG (SyncWorker_18) [pymodbus.transaction] Getting transaction 689
2023-02-03 11:00:25.732 DEBUG (SyncWorker_18) [pymodbus.transaction] Changing transaction state from "PROCESSING REPLY" to "TRANSACTION_COMPLETE"
2023-02-03 11:00:25.938 DEBUG (SyncWorker_31) [pymodbus.transaction] Current transaction state - TRANSACTION_COMPLETE
2023-02-03 11:00:25.938 DEBUG (SyncWorker_31) [pymodbus.transaction] Running transaction 690
2023-02-03 11:00:25.938 DEBUG (SyncWorker_31) [pymodbus.transaction] SEND: 0x2 0xb2 0x0 0x0 0x0 0x6 0x1 0x4 0x0 0x8 0x0 0x2
2023-02-03 11:00:25.939 DEBUG (SyncWorker_31) [pymodbus.client.base] New Transaction state "SENDING"
2023-02-03 11:00:25.939 DEBUG (SyncWorker_31) [pymodbus.transaction] Changing transaction state from "SENDING" to "WAITING FOR REPLY"
2023-02-03 11:00:25.981 DEBUG (SyncWorker_31) [pymodbus.transaction] Changing transaction state from "WAITING FOR REPLY" to "PROCESSING REPLY"
2023-02-03 11:00:25.982 DEBUG (SyncWorker_31) [pymodbus.transaction] RECV: 0x2 0xb2 0x0 0x0 0x0 0x7 0x1 0x4 0x4 0x3f 0x22 0x4d 0xdb
2023-02-03 11:00:25.982 DEBUG (SyncWorker_31) [pymodbus.framer.socket_framer] Processing: 0x2 0xb2 0x0 0x0 0x0 0x7 0x1 0x4 0x4 0x3f 0x22 0x4d 0xdb
2023-02-03 11:00:25.982 DEBUG (SyncWorker_31) [pymodbus.factory] Factory Response[ReadInputRegistersResponse': 4]
2023-02-03 11:00:25.982 DEBUG (SyncWorker_31) [pymodbus.transaction] Adding transaction 690
2023-02-03 11:00:25.983 DEBUG (SyncWorker_31) [pymodbus.transaction] Getting transaction 690
2023-02-03 11:00:25.983 DEBUG (SyncWorker_31) [pymodbus.transaction] Changing transaction state from "PROCESSING REPLY" to "TRANSACTION_COMPLETE"
2023-02-03 11:00:26.187 DEBUG (SyncWorker_26) [pymodbus.transaction] Current transaction state - TRANSACTION_COMPLETE
2023-02-03 11:00:26.187 DEBUG (SyncWorker_26) [pymodbus.transaction] Running transaction 691
2023-02-03 11:00:26.188 DEBUG (SyncWorker_26) [pymodbus.transaction] SEND: 0x2 0xb3 0x0 0x0 0x0 0x6 0x1 0x4 0x0 0xa 0x0 0x2
2023-02-03 11:00:26.188 DEBUG (SyncWorker_26) [pymodbus.client.base] New Transaction state "SENDING"
2023-02-03 11:00:26.189 DEBUG (SyncWorker_26) [pymodbus.transaction] Changing transaction state from "SENDING" to "WAITING FOR REPLY"
2023-02-03 11:00:26.231 DEBUG (SyncWorker_26) [pymodbus.transaction] Changing transaction state from "WAITING FOR REPLY" to "PROCESSING REPLY"
2023-02-03 11:00:26.232 DEBUG (SyncWorker_26) [pymodbus.transaction] RECV: 0x2 0xb3 0x0 0x0 0x0 0x7 0x1 0x4 0x4 0x3f 0x25 0xed 0x1c
2023-02-03 11:00:26.232 DEBUG (SyncWorker_26) [pymodbus.framer.socket_framer] Processing: 0x2 0xb3 0x0 0x0 0x0 0x7 0x1 0x4 0x4 0x3f 0x25 0xed 0x1c
2023-02-03 11:00:26.232 DEBUG (SyncWorker_26) [pymodbus.factory] Factory Response[ReadInputRegistersResponse': 4]
2023-02-03 11:00:26.233 DEBUG (SyncWorker_26) [pymodbus.transaction] Adding transaction 691
2023-02-03 11:00:26.233 DEBUG (SyncWorker_26) [pymodbus.transaction] Getting transaction 691
2023-02-03 11:00:26.233 DEBUG (SyncWorker_26) [pymodbus.transaction] Changing transaction state from "PROCESSING REPLY" to "TRANSACTION_COMPLETE"
2023-02-03 11:00:26.437 DEBUG (SyncWorker_19) [pymodbus.transaction] Current transaction state - TRANSACTION_COMPLETE
2023-02-03 11:00:26.438 DEBUG (SyncWorker_19) [pymodbus.transaction] Running transaction 692
2023-02-03 11:00:26.438 DEBUG (SyncWorker_19) [pymodbus.transaction] SEND: 0x2 0xb4 0x0 0x0 0x0 0x6 0x1 0x4 0x0 0xc 0x0 0x2
2023-02-03 11:00:26.438 DEBUG (SyncWorker_19) [pymodbus.client.base] New Transaction state "SENDING"
2023-02-03 11:00:26.439 DEBUG (SyncWorker_19) [pymodbus.transaction] Changing transaction state from "SENDING" to "WAITING FOR REPLY"
2023-02-03 11:00:26.478 DEBUG (SyncWorker_19) [pymodbus.transaction] Changing transaction state from "WAITING FOR REPLY" to "PROCESSING REPLY"
2023-02-03 11:00:26.479 DEBUG (SyncWorker_19) [pymodbus.transaction] RECV: 0x2 0xb4 0x0 0x0 0x0 0x7 0x1 0x4 0x4 0x43 0x15 0x23 0xfe
2023-02-03 11:00:26.479 DEBUG (SyncWorker_19) [pymodbus.framer.socket_framer] Processing: 0x2 0xb4 0x0 0x0 0x0 0x7 0x1 0x4 0x4 0x43 0x15 0x23 0xfe
2023-02-03 11:00:26.479 DEBUG (SyncWorker_19) [pymodbus.factory] Factory Response[ReadInputRegistersResponse': 4]
2023-02-03 11:00:26.480 DEBUG (SyncWorker_19) [pymodbus.transaction] Adding transaction 692
2023-02-03 11:00:26.480 DEBUG (SyncWorker_19) [pymodbus.transaction] Getting transaction 692
2023-02-03 11:00:26.480 DEBUG (SyncWorker_19) [pymodbus.transaction] Changing transaction state from "PROCESSING REPLY" to "TRANSACTION_COMPLETE"
2023-02-03 11:00:26.684 DEBUG (SyncWorker_17) [pymodbus.transaction] Current transaction state - TRANSACTION_COMPLETE
2023-02-03 11:00:26.685 DEBUG (SyncWorker_17) [pymodbus.transaction] Running transaction 693
2023-02-03 11:00:26.685 DEBUG (SyncWorker_17) [pymodbus.transaction] SEND: 0x2 0xb5 0x0 0x0 0x0 0x6 0x1 0x4 0x0 0xe 0x0 0x2
2023-02-03 11:00:26.685 DEBUG (SyncWorker_17) [pymodbus.client.base] New Transaction state "SENDING"
2023-02-03 11:00:26.685 DEBUG (SyncWorker_17) [pymodbus.transaction] Changing transaction state from "SENDING" to "WAITING FOR REPLY"
2023-02-03 11:00:26.725 DEBUG (SyncWorker_17) [pymodbus.transaction] Changing transaction state from "WAITING FOR REPLY" to "PROCESSING REPLY"
2023-02-03 11:00:26.725 DEBUG (SyncWorker_17) [pymodbus.transaction] RECV: 0x2 0xb5 0x0 0x0 0x0 0x7 0x1 0x4 0x4 0x43 0x10 0xb5 0x1d
2023-02-03 11:00:26.725 DEBUG (SyncWorker_17) [pymodbus.framer.socket_framer] Processing: 0x2 0xb5 0x0 0x0 0x0 0x7 0x1 0x4 0x4 0x43 0x10 0xb5 0x1d
2023-02-03 11:00:26.726 DEBUG (SyncWorker_17) [pymodbus.factory] Factory Response[ReadInputRegistersResponse': 4]
2023-02-03 11:00:26.726 DEBUG (SyncWorker_17) [pymodbus.transaction] Adding transaction 693
2023-02-03 11:00:26.726 DEBUG (SyncWorker_17) [pymodbus.transaction] Getting transaction 693
2023-02-03 11:00:26.726 DEBUG (SyncWorker_17) [pymodbus.transaction] Changing transaction state from "PROCESSING REPLY" to "TRANSACTION_COMPLETE"
2023-02-03 11:00:26.930 DEBUG (SyncWorker_27) [pymodbus.transaction] Current transaction state - TRANSACTION_COMPLETE
2023-02-03 11:00:26.930 DEBUG (SyncWorker_27) [pymodbus.transaction] Running transaction 694
2023-02-03 11:00:26.931 DEBUG (SyncWorker_27) [pymodbus.transaction] SEND: 0x2 0xb6 0x0 0x0 0x0 0x6 0x1 0x4 0x0 0x10 0x0 0x2
2023-02-03 11:00:26.931 DEBUG (SyncWorker_27) [pymodbus.client.base] New Transaction state "SENDING"
2023-02-03 11:00:26.931 DEBUG (SyncWorker_27) [pymodbus.transaction] Changing transaction state from "SENDING" to "WAITING FOR REPLY"
2023-02-03 11:00:26.970 DEBUG (SyncWorker_27) [pymodbus.transaction] Changing transaction state from "WAITING FOR REPLY" to "PROCESSING REPLY"
2023-02-03 11:00:26.971 DEBUG (SyncWorker_27) [pymodbus.transaction] RECV: 0x2 0xb6 0x0 0x0 0x0 0x7 0x1 0x4 0x4 0x43 0x14 0x28 0x5
2023-02-03 11:00:26.971 DEBUG (SyncWorker_27) [pymodbus.framer.socket_framer] Processing: 0x2 0xb6 0x0 0x0 0x0 0x7 0x1 0x4 0x4 0x43 0x14 0x28 0x5
2023-02-03 11:00:26.971 DEBUG (SyncWorker_27) [pymodbus.factory] Factory Response[ReadInputRegistersResponse': 4]
2023-02-03 11:00:26.972 DEBUG (SyncWorker_27) [pymodbus.transaction] Adding transaction 694
2023-02-03 11:00:26.972 DEBUG (SyncWorker_27) [pymodbus.transaction] Getting transaction 694
2023-02-03 11:00:26.972 DEBUG (SyncWorker_27) [pymodbus.transaction] Changing transaction state from "PROCESSING REPLY" to "TRANSACTION_COMPLETE"
2023-02-03 11:00:27.176 DEBUG (SyncWorker_21) [pymodbus.transaction] Current transaction state - TRANSACTION_COMPLETE
2023-02-03 11:00:27.176 DEBUG (SyncWorker_21) [pymodbus.transaction] Running transaction 695
2023-02-03 11:00:27.176 DEBUG (SyncWorker_21) [pymodbus.transaction] SEND: 0x2 0xb7 0x0 0x0 0x0 0x6 0x1 0x4 0x0 0x12 0x0 0x2
2023-02-03 11:00:27.176 DEBUG (SyncWorker_21) [pymodbus.client.base] New Transaction state "SENDING"
2023-02-03 11:00:27.178 DEBUG (SyncWorker_21) [pymodbus.transaction] Changing transaction state from "SENDING" to "WAITING FOR REPLY"
2023-02-03 11:00:27.218 DEBUG (SyncWorker_21) [pymodbus.transaction] Changing transaction state from "WAITING FOR REPLY" to "PROCESSING REPLY"
2023-02-03 11:00:27.218 DEBUG (SyncWorker_21) [pymodbus.transaction] RECV: 0x2 0xb7 0x0 0x0 0x0 0x7 0x1 0x4 0x4 0x43 0x13 0xba 0xf1
2023-02-03 11:00:27.218 DEBUG (SyncWorker_21) [pymodbus.framer.socket_framer] Processing: 0x2 0xb7 0x0 0x0 0x0 0x7 0x1 0x4 0x4 0x43 0x13 0xba 0xf1
2023-02-03 11:00:27.219 DEBUG (SyncWorker_21) [pymodbus.factory] Factory Response[ReadInputRegistersResponse': 4]
2023-02-03 11:00:27.219 DEBUG (SyncWorker_21) [pymodbus.transaction] Adding transaction 695
2023-02-03 11:00:27.219 DEBUG (SyncWorker_21) [pymodbus.transaction] Getting transaction 695
2023-02-03 11:00:27.220 DEBUG (SyncWorker_21) [pymodbus.transaction] Changing transaction state from "PROCESSING REPLY" to "TRANSACTION_COMPLETE"
2023-02-03 11:00:27.425 DEBUG (SyncWorker_33) [pymodbus.transaction] Current transaction state - TRANSACTION_COMPLETE
2023-02-03 11:00:27.426 DEBUG (SyncWorker_33) [pymodbus.transaction] Running transaction 696
2023-02-03 11:00:27.426 DEBUG (SyncWorker_33) [pymodbus.transaction] SEND: 0x2 0xb8 0x0 0x0 0x0 0x6 0x1 0x4 0x0 0x14 0x0 0x2
2023-02-03 11:00:27.426 DEBUG (SyncWorker_33) [pymodbus.client.base] New Transaction state "SENDING"
2023-02-03 11:00:27.426 DEBUG (SyncWorker_33) [pymodbus.transaction] Changing transaction state from "SENDING" to "WAITING FOR REPLY"
2023-02-03 11:00:27.466 DEBUG (SyncWorker_33) [pymodbus.transaction] Changing transaction state from "WAITING FOR REPLY" to "PROCESSING REPLY"
2023-02-03 11:00:27.467 DEBUG (SyncWorker_33) [pymodbus.transaction] RECV: 0x2 0xb8 0x0 0x0 0x0 0x7 0x1 0x4 0x4 0x43 0xf 0xbd 0xf
2023-02-03 11:00:27.467 DEBUG (SyncWorker_33) [pymodbus.framer.socket_framer] Processing: 0x2 0xb8 0x0 0x0 0x0 0x7 0x1 0x4 0x4 0x43 0xf 0xbd 0xf
2023-02-03 11:00:27.467 DEBUG (SyncWorker_33) [pymodbus.factory] Factory Response[ReadInputRegistersResponse': 4]
2023-02-03 11:00:27.467 DEBUG (SyncWorker_33) [pymodbus.transaction] Adding transaction 696
2023-02-03 11:00:27.468 DEBUG (SyncWorker_33) [pymodbus.transaction] Getting transaction 696
2023-02-03 11:00:27.468 DEBUG (SyncWorker_33) [pymodbus.transaction] Changing transaction state from "PROCESSING REPLY" to "TRANSACTION_COMPLETE"
2023-02-03 11:00:27.673 DEBUG (SyncWorker_4) [pymodbus.transaction] Current transaction state - TRANSACTION_COMPLETE
2023-02-03 11:00:27.673 DEBUG (SyncWorker_4) [pymodbus.transaction] Running transaction 697
2023-02-03 11:00:27.674 DEBUG (SyncWorker_4) [pymodbus.transaction] SEND: 0x2 0xb9 0x0 0x0 0x0 0x6 0x1 0x4 0x0 0x16 0x0 0x2
2023-02-03 11:00:27.674 DEBUG (SyncWorker_4) [pymodbus.client.base] New Transaction state "SENDING"
2023-02-03 11:00:27.675 DEBUG (SyncWorker_4) [pymodbus.transaction] Changing transaction state from "SENDING" to "WAITING FOR REPLY"
2023-02-03 11:00:27.715 DEBUG (SyncWorker_4) [pymodbus.transaction] Changing transaction state from "WAITING FOR REPLY" to "PROCESSING REPLY"
2023-02-03 11:00:27.716 DEBUG (SyncWorker_4) [pymodbus.transaction] RECV: 0x2 0xb9 0x0 0x0 0x0 0x7 0x1 0x4 0x4 0x43 0x13 0x5e 0xdb
2023-02-03 11:00:27.716 DEBUG (SyncWorker_4) [pymodbus.framer.socket_framer] Processing: 0x2 0xb9 0x0 0x0 0x0 0x7 0x1 0x4 0x4 0x43 0x13 0x5e 0xdb
2023-02-03 11:00:27.717 DEBUG (SyncWorker_4) [pymodbus.factory] Factory Response[ReadInputRegistersResponse': 4]
2023-02-03 11:00:27.717 DEBUG (SyncWorker_4) [pymodbus.transaction] Adding transaction 697
2023-02-03 11:00:27.717 DEBUG (SyncWorker_4) [pymodbus.transaction] Getting transaction 697
2023-02-03 11:00:27.717 DEBUG (SyncWorker_4) [pymodbus.transaction] Changing transaction state from "PROCESSING REPLY" to "TRANSACTION_COMPLETE"
2023-02-03 11:00:27.923 DEBUG (SyncWorker_1) [pymodbus.transaction] Current transaction state - TRANSACTION_COMPLETE
2023-02-03 11:00:27.923 DEBUG (SyncWorker_1) [pymodbus.transaction] Running transaction 698
2023-02-03 11:00:27.923 DEBUG (SyncWorker_1) [pymodbus.transaction] SEND: 0x2 0xba 0x0 0x0 0x0 0x6 0x1 0x4 0x0 0x18 0x0 0x2
2023-02-03 11:00:27.924 DEBUG (SyncWorker_1) [pymodbus.client.base] New Transaction state "SENDING"
2023-02-03 11:00:27.924 DEBUG (SyncWorker_1) [pymodbus.transaction] Changing transaction state from "SENDING" to "WAITING FOR REPLY"
2023-02-03 11:00:27.964 DEBUG (SyncWorker_1) [pymodbus.transaction] Changing transaction state from "WAITING FOR REPLY" to "PROCESSING REPLY"
2023-02-03 11:00:27.965 DEBUG (SyncWorker_1) [pymodbus.transaction] RECV: 0x2 0xba 0x0 0x0 0x0 0x7 0x1 0x4 0x4 0x0 0x0 0x0 0x0
2023-02-03 11:00:27.965 DEBUG (SyncWorker_1) [pymodbus.framer.socket_framer] Processing: 0x2 0xba 0x0 0x0 0x0 0x7 0x1 0x4 0x4 0x0 0x0 0x0 0x0
2023-02-03 11:00:27.965 DEBUG (SyncWorker_1) [pymodbus.factory] Factory Response[ReadInputRegistersResponse': 4]
2023-02-03 11:00:27.966 DEBUG (SyncWorker_1) [pymodbus.transaction] Adding transaction 698
2023-02-03 11:00:27.966 DEBUG (SyncWorker_1) [pymodbus.transaction] Getting transaction 698
2023-02-03 11:00:27.966 DEBUG (SyncWorker_1) [pymodbus.transaction] Changing transaction state from "PROCESSING REPLY" to "TRANSACTION_COMPLETE"
2023-02-03 11:00:28.169 DEBUG (SyncWorker_29) [pymodbus.transaction] Current transaction state - TRANSACTION_COMPLETE
2023-02-03 11:00:28.170 DEBUG (SyncWorker_29) [pymodbus.transaction] Running transaction 699
2023-02-03 11:00:28.170 DEBUG (SyncWorker_29) [pymodbus.transaction] SEND: 0x2 0xbb 0x0 0x0 0x0 0x6 0x1 0x4 0x0 0x1a 0x0 0x2
2023-02-03 11:00:28.170 DEBUG (SyncWorker_29) [pymodbus.client.base] New Transaction state "SENDING"
2023-02-03 11:00:28.170 DEBUG (SyncWorker_29) [pymodbus.transaction] Changing transaction state from "SENDING" to "WAITING FOR REPLY"
2023-02-03 11:00:28.210 DEBUG (SyncWorker_29) [pymodbus.transaction] Changing transaction state from "WAITING FOR REPLY" to "PROCESSING REPLY"
2023-02-03 11:00:28.210 DEBUG (SyncWorker_29) [pymodbus.transaction] RECV: 0x2 0xbb 0x0 0x0 0x0 0x7 0x1 0x4 0x4 0x0 0x0 0x0 0x0
2023-02-03 11:00:28.210 DEBUG (SyncWorker_29) [pymodbus.framer.socket_framer] Processing: 0x2 0xbb 0x0 0x0 0x0 0x7 0x1 0x4 0x4 0x0 0x0 0x0 0x0
2023-02-03 11:00:28.210 DEBUG (SyncWorker_29) [pymodbus.factory] Factory Response[ReadInputRegistersResponse': 4]
2023-02-03 11:00:28.211 DEBUG (SyncWorker_29) [pymodbus.transaction] Adding transaction 699
2023-02-03 11:00:28.211 DEBUG (SyncWorker_29) [pymodbus.transaction] Getting transaction 699
2023-02-03 11:00:28.211 DEBUG (SyncWorker_29) [pymodbus.transaction] Changing transaction state from "PROCESSING REPLY" to "TRANSACTION_COMPLETE"
2023-02-03 11:00:28.413 DEBUG (SyncWorker_35) [pymodbus.transaction] Current transaction state - TRANSACTION_COMPLETE
2023-02-03 11:00:28.413 DEBUG (SyncWorker_35) [pymodbus.transaction] Running transaction 700
2023-02-03 11:00:28.413 DEBUG (SyncWorker_35) [pymodbus.transaction] SEND: 0x2 0xbc 0x0 0x0 0x0 0x6 0x1 0x4 0x0 0x1c 0x0 0x2
2023-02-03 11:00:28.413 DEBUG (SyncWorker_35) [pymodbus.client.base] New Transaction state "SENDING"
2023-02-03 11:00:28.414 DEBUG (SyncWorker_35) [pymodbus.transaction] Changing transaction state from "SENDING" to "WAITING FOR REPLY"
2023-02-03 11:00:28.453 DEBUG (SyncWorker_35) [pymodbus.transaction] Changing transaction state from "WAITING FOR REPLY" to "PROCESSING REPLY"
2023-02-03 11:00:28.453 DEBUG (SyncWorker_35) [pymodbus.transaction] RECV: 0x2 0xbc 0x0 0x0 0x0 0x7 0x1 0x4 0x4 0x0 0x0 0x0 0x0
2023-02-03 11:00:28.454 DEBUG (SyncWorker_35) [pymodbus.framer.socket_framer] Processing: 0x2 0xbc 0x0 0x0 0x0 0x7 0x1 0x4 0x4 0x0 0x0 0x0 0x0
2023-02-03 11:00:28.454 DEBUG (SyncWorker_35) [pymodbus.factory] Factory Response[ReadInputRegistersResponse': 4]
2023-02-03 11:00:28.454 DEBUG (SyncWorker_35) [pymodbus.transaction] Adding transaction 700
2023-02-03 11:00:28.454 DEBUG (SyncWorker_35) [pymodbus.transaction] Getting transaction 700
2023-02-03 11:00:28.454 DEBUG (SyncWorker_35) [pymodbus.transaction] Changing transaction state from "PROCESSING REPLY" to "TRANSACTION_COMPLETE"
2023-02-03 11:00:28.656 DEBUG (SyncWorker_38) [pymodbus.transaction] Current transaction state - TRANSACTION_COMPLETE
2023-02-03 11:00:28.656 DEBUG (SyncWorker_38) [pymodbus.transaction] Running transaction 701
2023-02-03 11:00:28.657 DEBUG (SyncWorker_38) [pymodbus.transaction] SEND: 0x2 0xbd 0x0 0x0 0x0 0x6 0x1 0x4 0x0 0x1e 0x0 0x2
2023-02-03 11:00:28.657 DEBUG (SyncWorker_38) [pymodbus.client.base] New Transaction state "SENDING"
2023-02-03 11:00:28.657 DEBUG (SyncWorker_38) [pymodbus.transaction] Changing transaction state from "SENDING" to "WAITING FOR REPLY"
2023-02-03 11:00:28.700 DEBUG (SyncWorker_38) [pymodbus.transaction] Changing transaction state from "WAITING FOR REPLY" to "PROCESSING REPLY"
2023-02-03 11:00:28.701 DEBUG (SyncWorker_38) [pymodbus.transaction] RECV: 0x2 0xbd 0x0 0x0 0x0 0x7 0x1 0x4 0x4 0x3f 0x7f 0xfe 0xdb
2023-02-03 11:00:28.701 DEBUG (SyncWorker_38) [pymodbus.framer.socket_framer] Processing: 0x2 0xbd 0x0 0x0 0x0 0x7 0x1 0x4 0x4 0x3f 0x7f 0xfe 0xdb
2023-02-03 11:00:28.701 DEBUG (SyncWorker_38) [pymodbus.factory] Factory Response[ReadInputRegistersResponse': 4]
2023-02-03 11:00:28.701 DEBUG (SyncWorker_38) [pymodbus.transaction] Adding transaction 701
2023-02-03 11:00:28.701 DEBUG (SyncWorker_38) [pymodbus.transaction] Getting transaction 701
2023-02-03 11:00:28.702 DEBUG (SyncWorker_38) [pymodbus.transaction] Changing transaction state from "PROCESSING REPLY" to "TRANSACTION_COMPLETE"
2023-02-03 11:00:28.906 DEBUG (SyncWorker_8) [pymodbus.transaction] Current transaction state - TRANSACTION_COMPLETE
2023-02-03 11:00:28.906 DEBUG (SyncWorker_8) [pymodbus.transaction] Running transaction 702
2023-02-03 11:00:28.906 DEBUG (SyncWorker_8) [pymodbus.transaction] SEND: 0x2 0xbe 0x0 0x0 0x0 0x6 0x1 0x4 0x0 0x20 0x0 0x2
2023-02-03 11:00:28.906 DEBUG (SyncWorker_8) [pymodbus.client.base] New Transaction state "SENDING"
2023-02-03 11:00:28.908 DEBUG (SyncWorker_8) [pymodbus.transaction] Changing transaction state from "SENDING" to "WAITING FOR REPLY"
2023-02-03 11:00:28.955 DEBUG (SyncWorker_8) [pymodbus.transaction] Changing transaction state from "WAITING FOR REPLY" to "PROCESSING REPLY"
2023-02-03 11:00:28.955 DEBUG (SyncWorker_8) [pymodbus.transaction] RECV: 0x2 0xbe 0x0 0x0 0x0 0x7 0x1 0x4 0x4 0x3f 0x7f 0xfa 0xe5
2023-02-03 11:00:28.955 DEBUG (SyncWorker_8) [pymodbus.framer.socket_framer] Processing: 0x2 0xbe 0x0 0x0 0x0 0x7 0x1 0x4 0x4 0x3f 0x7f 0xfa 0xe5
2023-02-03 11:00:28.956 DEBUG (SyncWorker_8) [pymodbus.factory] Factory Response[ReadInputRegistersResponse': 4]
2023-02-03 11:00:28.956 DEBUG (SyncWorker_8) [pymodbus.transaction] Adding transaction 702
2023-02-03 11:00:28.956 DEBUG (SyncWorker_8) [pymodbus.transaction] Getting transaction 702
2023-02-03 11:00:28.956 DEBUG (SyncWorker_8) [pymodbus.transaction] Changing transaction state from "PROCESSING REPLY" to "TRANSACTION_COMPLETE"
2023-02-03 11:00:29.164 DEBUG (SyncWorker_14) [pymodbus.transaction] Current transaction state - TRANSACTION_COMPLETE
2023-02-03 11:00:29.164 DEBUG (SyncWorker_14) [pymodbus.transaction] Running transaction 703
2023-02-03 11:00:29.164 DEBUG (SyncWorker_14) [pymodbus.transaction] SEND: 0x2 0xbf 0x0 0x0 0x0 0x6 0x1 0x4 0x0 0x22 0x0 0x2
2023-02-03 11:00:29.165 DEBUG (SyncWorker_14) [pymodbus.client.base] New Transaction state "SENDING"
2023-02-03 11:00:29.165 DEBUG (SyncWorker_14) [pymodbus.transaction] Changing transaction state from "SENDING" to "WAITING FOR REPLY"
2023-02-03 11:00:29.210 DEBUG (SyncWorker_14) [pymodbus.transaction] Changing transaction state from "WAITING FOR REPLY" to "PROCESSING REPLY"
2023-02-03 11:00:29.210 DEBUG (SyncWorker_14) [pymodbus.transaction] RECV: 0x2 0xbf 0x0 0x0 0x0 0x7 0x1 0x4 0x4 0x3f 0x7f 0xff 0x77
2023-02-03 11:00:29.210 DEBUG (SyncWorker_14) [pymodbus.framer.socket_framer] Processing: 0x2 0xbf 0x0 0x0 0x0 0x7 0x1 0x4 0x4 0x3f 0x7f 0xff 0x77
2023-02-03 11:00:29.210 DEBUG (SyncWorker_14) [pymodbus.factory] Factory Response[ReadInputRegistersResponse': 4]
2023-02-03 11:00:29.211 DEBUG (SyncWorker_14) [pymodbus.transaction] Adding transaction 703
2023-02-03 11:00:29.211 DEBUG (SyncWorker_14) [pymodbus.transaction] Getting transaction 703
2023-02-03 11:00:29.211 DEBUG (SyncWorker_14) [pymodbus.transaction] Changing transaction state from "PROCESSING REPLY" to "TRANSACTION_COMPLETE"
2023-02-03 11:00:29.415 DEBUG (SyncWorker_3) [pymodbus.transaction] Current transaction state - TRANSACTION_COMPLETE
2023-02-03 11:00:29.416 DEBUG (SyncWorker_3) [pymodbus.transaction] Running transaction 704
2023-02-03 11:00:29.416 DEBUG (SyncWorker_3) [pymodbus.transaction] SEND: 0x2 0xc0 0x0 0x0 0x0 0x6 0x1 0x4 0x0 0x24 0x0 0x2
2023-02-03 11:00:29.416 DEBUG (SyncWorker_3) [pymodbus.client.base] New Transaction state "SENDING"
2023-02-03 11:00:29.418 DEBUG (SyncWorker_3) [pymodbus.transaction] Changing transaction state from "SENDING" to "WAITING FOR REPLY"
2023-02-03 11:00:29.460 DEBUG (SyncWorker_3) [pymodbus.transaction] Changing transaction state from "WAITING FOR REPLY" to "PROCESSING REPLY"
2023-02-03 11:00:29.460 DEBUG (SyncWorker_3) [pymodbus.transaction] RECV: 0x2 0xc0 0x0 0x0 0x0 0x7 0x1 0x4 0x4 0xbf 0x24 0xa9 0xbf
2023-02-03 11:00:29.461 DEBUG (SyncWorker_3) [pymodbus.framer.socket_framer] Processing: 0x2 0xc0 0x0 0x0 0x0 0x7 0x1 0x4 0x4 0xbf 0x24 0xa9 0xbf
2023-02-03 11:00:29.461 DEBUG (SyncWorker_3) [pymodbus.factory] Factory Response[ReadInputRegistersResponse': 4]
2023-02-03 11:00:29.461 DEBUG (SyncWorker_3) [pymodbus.transaction] Adding transaction 704
2023-02-03 11:00:29.462 DEBUG (SyncWorker_3) [pymodbus.transaction] Getting transaction 704
2023-02-03 11:00:29.462 DEBUG (SyncWorker_3) [pymodbus.transaction] Changing transaction state from "PROCESSING REPLY" to "TRANSACTION_COMPLETE"
2023-02-03 11:00:29.665 DEBUG (SyncWorker_13) [pymodbus.transaction] Current transaction state - TRANSACTION_COMPLETE
2023-02-03 11:00:29.666 DEBUG (SyncWorker_13) [pymodbus.transaction] Running transaction 705
2023-02-03 11:00:29.666 DEBUG (SyncWorker_13) [pymodbus.transaction] SEND: 0x2 0xc1 0x0 0x0 0x0 0x6 0x1 0x4 0x0 0x26 0x0 0x2
2023-02-03 11:00:29.667 DEBUG (SyncWorker_13) [pymodbus.client.base] New Transaction state "SENDING"
2023-02-03 11:00:29.667 DEBUG (SyncWorker_13) [pymodbus.transaction] Changing transaction state from "SENDING" to "WAITING FOR REPLY"
2023-02-03 11:00:29.711 DEBUG (SyncWorker_13) [pymodbus.transaction] Changing transaction state from "WAITING FOR REPLY" to "PROCESSING REPLY"
2023-02-03 11:00:29.711 DEBUG (SyncWorker_13) [pymodbus.transaction] RECV: 0x2 0xc1 0x0 0x0 0x0 0x7 0x1 0x4 0x4 0xbf 0x1d 0x7f 0x23
2023-02-03 11:00:29.711 DEBUG (SyncWorker_13) [pymodbus.framer.socket_framer] Processing: 0x2 0xc1 0x0 0x0 0x0 0x7 0x1 0x4 0x4 0xbf 0x1d 0x7f 0x23
2023-02-03 11:00:29.712 DEBUG (SyncWorker_13) [pymodbus.factory] Factory Response[ReadInputRegistersResponse': 4]
2023-02-03 11:00:29.712 DEBUG (SyncWorker_13) [pymodbus.transaction] Adding transaction 705
2023-02-03 11:00:29.712 DEBUG (SyncWorker_13) [pymodbus.transaction] Getting transaction 705
2023-02-03 11:00:29.712 DEBUG (SyncWorker_13) [pymodbus.transaction] Changing transaction state from "PROCESSING REPLY" to "TRANSACTION_COMPLETE"
2023-02-03 11:00:29.920 DEBUG (SyncWorker_5) [pymodbus.transaction] Current transaction state - TRANSACTION_COMPLETE
2023-02-03 11:00:29.920 DEBUG (SyncWorker_5) [pymodbus.transaction] Running transaction 706
2023-02-03 11:00:29.921 DEBUG (SyncWorker_5) [pymodbus.transaction] SEND: 0x2 0xc2 0x0 0x0 0x0 0x6 0x1 0x4 0x0 0x28 0x0 0x2
2023-02-03 11:00:29.921 DEBUG (SyncWorker_5) [pymodbus.client.base] New Transaction state "SENDING"
2023-02-03 11:00:29.922 DEBUG (SyncWorker_5) [pymodbus.transaction] Changing transaction state from "SENDING" to "WAITING FOR REPLY"
2023-02-03 11:00:29.965 DEBUG (SyncWorker_5) [pymodbus.transaction] Changing transaction state from "WAITING FOR REPLY" to "PROCESSING REPLY"
2023-02-03 11:00:29.966 DEBUG (SyncWorker_5) [pymodbus.transaction] RECV: 0x2 0xc2 0x0 0x0 0x0 0x7 0x1 0x4 0x4 0x3e 0x91 0x62 0x2b
2023-02-03 11:00:29.966 DEBUG (SyncWorker_5) [pymodbus.framer.socket_framer] Processing: 0x2 0xc2 0x0 0x0 0x0 0x7 0x1 0x4 0x4 0x3e 0x91 0x62 0x2b
2023-02-03 11:00:29.966 DEBUG (SyncWorker_5) [pymodbus.factory] Factory Response[ReadInputRegistersResponse': 4]
2023-02-03 11:00:29.966 DEBUG (SyncWorker_5) [pymodbus.transaction] Adding transaction 706
2023-02-03 11:00:29.967 DEBUG (SyncWorker_5) [pymodbus.transaction] Getting transaction 706
2023-02-03 11:00:29.967 DEBUG (SyncWorker_5) [pymodbus.transaction] Changing transaction state from "PROCESSING REPLY" to "TRANSACTION_COMPLETE"
2023-02-03 11:00:30.170 DEBUG (SyncWorker_32) [pymodbus.transaction] Current transaction state - TRANSACTION_COMPLETE
2023-02-03 11:00:30.170 DEBUG (SyncWorker_32) [pymodbus.transaction] Running transaction 707
2023-02-03 11:00:30.170 DEBUG (SyncWorker_32) [pymodbus.transaction] SEND: 0x2 0xc3 0x0 0x0 0x0 0x6 0x1 0x4 0x0 0x2a 0x0 0x2
2023-02-03 11:00:30.170 DEBUG (SyncWorker_32) [pymodbus.client.base] New Transaction state "SENDING"
2023-02-03 11:00:30.171 DEBUG (SyncWorker_32) [pymodbus.transaction] Changing transaction state from "SENDING" to "WAITING FOR REPLY"
2023-02-03 11:00:30.213 DEBUG (SyncWorker_32) [pymodbus.transaction] Changing transaction state from "WAITING FOR REPLY" to "PROCESSING REPLY"
2023-02-03 11:00:30.214 DEBUG (SyncWorker_32) [pymodbus.transaction] RECV: 0x2 0xc3 0x0 0x0 0x0 0x7 0x1 0x4 0x4 0x43 0x64 0x9a 0xd9
2023-02-03 11:00:30.214 DEBUG (SyncWorker_32) [pymodbus.framer.socket_framer] Processing: 0x2 0xc3 0x0 0x0 0x0 0x7 0x1 0x4 0x4 0x43 0x64 0x9a 0xd9
2023-02-03 11:00:30.214 DEBUG (SyncWorker_32) [pymodbus.factory] Factory Response[ReadInputRegistersResponse': 4]
2023-02-03 11:00:30.214 DEBUG (SyncWorker_32) [pymodbus.transaction] Adding transaction 707
2023-02-03 11:00:30.214 DEBUG (SyncWorker_32) [pymodbus.transaction] Getting transaction 707
2023-02-03 11:00:30.214 DEBUG (SyncWorker_32) [pymodbus.transaction] Changing transaction state from "PROCESSING REPLY" to "TRANSACTION_COMPLETE"
2023-02-03 11:00:30.417 DEBUG (SyncWorker_15) [pymodbus.transaction] Current transaction state - TRANSACTION_COMPLETE
2023-02-03 11:00:30.417 DEBUG (SyncWorker_15) [pymodbus.transaction] Running transaction 708
2023-02-03 11:00:30.418 DEBUG (SyncWorker_15) [pymodbus.transaction] SEND: 0x2 0xc4 0x0 0x0 0x0 0x6 0x1 0x4 0x0 0x2e 0x0 0x2
2023-02-03 11:00:30.418 DEBUG (SyncWorker_15) [pymodbus.client.base] New Transaction state "SENDING"
2023-02-03 11:00:30.418 DEBUG (SyncWorker_15) [pymodbus.transaction] Changing transaction state from "SENDING" to "WAITING FOR REPLY"
2023-02-03 11:00:30.461 DEBUG (SyncWorker_15) [pymodbus.transaction] Changing transaction state from "WAITING FOR REPLY" to "PROCESSING REPLY"
2023-02-03 11:00:30.462 DEBUG (SyncWorker_15) [pymodbus.transaction] RECV: 0x2 0xc4 0x0 0x0 0x0 0x7 0x1 0x4 0x4 0x3f 0x36 0x5f 0x39
2023-02-03 11:00:30.462 DEBUG (SyncWorker_15) [pymodbus.framer.socket_framer] Processing: 0x2 0xc4 0x0 0x0 0x0 0x7 0x1 0x4 0x4 0x3f 0x36 0x5f 0x39
2023-02-03 11:00:30.462 DEBUG (SyncWorker_15) [pymodbus.factory] Factory Response[ReadInputRegistersResponse': 4]
2023-02-03 11:00:30.462 DEBUG (SyncWorker_15) [pymodbus.transaction] Adding transaction 708
2023-02-03 11:00:30.462 DEBUG (SyncWorker_15) [pymodbus.transaction] Getting transaction 708
2023-02-03 11:00:30.462 DEBUG (SyncWorker_15) [pymodbus.transaction] Changing transaction state from "PROCESSING REPLY" to "TRANSACTION_COMPLETE"
2023-02-03 11:00:30.666 DEBUG (SyncWorker_10) [pymodbus.transaction] Current transaction state - TRANSACTION_COMPLETE
2023-02-03 11:00:30.666 DEBUG (SyncWorker_10) [pymodbus.transaction] Running transaction 709
2023-02-03 11:00:30.667 DEBUG (SyncWorker_10) [pymodbus.transaction] SEND: 0x2 0xc5 0x0 0x0 0x0 0x6 0x1 0x4 0x0 0x30 0x0 0x2
2023-02-03 11:00:30.667 DEBUG (SyncWorker_10) [pymodbus.client.base] New Transaction state "SENDING"
2023-02-03 11:00:30.667 DEBUG (SyncWorker_10) [pymodbus.transaction] Changing transaction state from "SENDING" to "WAITING FOR REPLY"
2023-02-03 11:00:30.712 DEBUG (SyncWorker_10) [pymodbus.transaction] Changing transaction state from "WAITING FOR REPLY" to "PROCESSING REPLY"
2023-02-03 11:00:30.712 DEBUG (SyncWorker_10) [pymodbus.transaction] RECV: 0x2 0xc5 0x0 0x0 0x0 0x7 0x1 0x4 0x4 0x40 0x8 0xc7 0x6b
2023-02-03 11:00:30.712 DEBUG (SyncWorker_10) [pymodbus.framer.socket_framer] Processing: 0x2 0xc5 0x0 0x0 0x0 0x7 0x1 0x4 0x4 0x40 0x8 0xc7 0x6b
2023-02-03 11:00:30.712 DEBUG (SyncWorker_10) [pymodbus.factory] Factory Response[ReadInputRegistersResponse': 4]
2023-02-03 11:00:30.712 DEBUG (SyncWorker_10) [pymodbus.transaction] Adding transaction 709
2023-02-03 11:00:30.712 DEBUG (SyncWorker_10) [pymodbus.transaction] Getting transaction 709
2023-02-03 11:00:30.712 DEBUG (SyncWorker_10) [pymodbus.transaction] Changing transaction state from "PROCESSING REPLY" to "TRANSACTION_COMPLETE"
2023-02-03 11:00:30.916 DEBUG (SyncWorker_12) [pymodbus.transaction] Current transaction state - TRANSACTION_COMPLETE
2023-02-03 11:00:30.917 DEBUG (SyncWorker_12) [pymodbus.transaction] Running transaction 710
2023-02-03 11:00:30.917 DEBUG (SyncWorker_12) [pymodbus.transaction] SEND: 0x2 0xc6 0x0 0x0 0x0 0x6 0x1 0x4 0x0 0x38 0x0 0x2
2023-02-03 11:00:30.917 DEBUG (SyncWorker_12) [pymodbus.client.base] New Transaction state "SENDING"
2023-02-03 11:00:30.918 DEBUG (SyncWorker_12) [pymodbus.transaction] Changing transaction state from "SENDING" to "WAITING FOR REPLY"
2023-02-03 11:00:30.964 DEBUG (SyncWorker_12) [pymodbus.transaction] Changing transaction state from "WAITING FOR REPLY" to "PROCESSING REPLY"
2023-02-03 11:00:30.965 DEBUG (SyncWorker_12) [pymodbus.transaction] RECV: 0x2 0xc6 0x0 0x0 0x0 0x7 0x1 0x4 0x4 0x43 0xd6 0x87 0x6a
2023-02-03 11:00:30.965 DEBUG (SyncWorker_12) [pymodbus.framer.socket_framer] Processing: 0x2 0xc6 0x0 0x0 0x0 0x7 0x1 0x4 0x4 0x43 0xd6 0x87 0x6a
2023-02-03 11:00:30.965 DEBUG (SyncWorker_12) [pymodbus.factory] Factory Response[ReadInputRegistersResponse': 4]
2023-02-03 11:00:30.965 DEBUG (SyncWorker_12) [pymodbus.transaction] Adding transaction 710
2023-02-03 11:00:30.966 DEBUG (SyncWorker_12) [pymodbus.transaction] Getting transaction 710
2023-02-03 11:00:30.966 DEBUG (SyncWorker_12) [pymodbus.transaction] Changing transaction state from "PROCESSING REPLY" to "TRANSACTION_COMPLETE"
2023-02-03 11:00:31.169 DEBUG (SyncWorker_39) [pymodbus.transaction] Current transaction state - TRANSACTION_COMPLETE
2023-02-03 11:00:31.170 DEBUG (SyncWorker_39) [pymodbus.transaction] Running transaction 711
2023-02-03 11:00:31.170 DEBUG (SyncWorker_39) [pymodbus.transaction] SEND: 0x2 0xc7 0x0 0x0 0x0 0x6 0x1 0x4 0x0 0x3c 0x0 0x2
2023-02-03 11:00:31.170 DEBUG (SyncWorker_39) [pymodbus.client.base] New Transaction state "SENDING"
2023-02-03 11:00:31.170 DEBUG (SyncWorker_39) [pymodbus.transaction] Changing transaction state from "SENDING" to "WAITING FOR REPLY"
2023-02-03 11:00:31.213 DEBUG (SyncWorker_39) [pymodbus.transaction] Changing transaction state from "WAITING FOR REPLY" to "PROCESSING REPLY"
2023-02-03 11:00:31.213 DEBUG (SyncWorker_39) [pymodbus.transaction] RECV: 0x2 0xc7 0x0 0x0 0x0 0x7 0x1 0x4 0x4 0x0 0x0 0x0 0x0
2023-02-03 11:00:31.213 DEBUG (SyncWorker_39) [pymodbus.framer.socket_framer] Processing: 0x2 0xc7 0x0 0x0 0x0 0x7 0x1 0x4 0x4 0x0 0x0 0x0 0x0
2023-02-03 11:00:31.214 DEBUG (SyncWorker_39) [pymodbus.factory] Factory Response[ReadInputRegistersResponse': 4]
2023-02-03 11:00:31.214 DEBUG (SyncWorker_39) [pymodbus.transaction] Adding transaction 711
2023-02-03 11:00:31.214 DEBUG (SyncWorker_39) [pymodbus.transaction] Getting transaction 711
2023-02-03 11:00:31.214 DEBUG (SyncWorker_39) [pymodbus.transaction] Changing transaction state from "PROCESSING REPLY" to "TRANSACTION_COMPLETE"
2023-02-03 11:00:31.419 DEBUG (SyncWorker_2) [pymodbus.transaction] Current transaction state - TRANSACTION_COMPLETE
2023-02-03 11:00:31.419 DEBUG (SyncWorker_2) [pymodbus.transaction] Running transaction 712
2023-02-03 11:00:31.419 DEBUG (SyncWorker_2) [pymodbus.transaction] SEND: 0x2 0xc8 0x0 0x0 0x0 0x6 0x1 0x4 0x0 0x3e 0x0 0x2
2023-02-03 11:00:31.420 DEBUG (SyncWorker_2) [pymodbus.client.base] New Transaction state "SENDING"
2023-02-03 11:00:31.421 DEBUG (SyncWorker_2) [pymodbus.transaction] Changing transaction state from "SENDING" to "WAITING FOR REPLY"
2023-02-03 11:00:31.471 DEBUG (SyncWorker_2) [pymodbus.transaction] Changing transaction state from "WAITING FOR REPLY" to "PROCESSING REPLY"
2023-02-03 11:00:31.471 DEBUG (SyncWorker_2) [pymodbus.transaction] RECV: 0x2 0xc8 0x0 0x0 0x0 0x7 0x1 0x4 0x4 0x3f 0x7f 0xfe 0x34
2023-02-03 11:00:31.472 DEBUG (SyncWorker_2) [pymodbus.framer.socket_framer] Processing: 0x2 0xc8 0x0 0x0 0x0 0x7 0x1 0x4 0x4 0x3f 0x7f 0xfe 0x34
2023-02-03 11:00:31.472 DEBUG (SyncWorker_2) [pymodbus.factory] Factory Response[ReadInputRegistersResponse': 4]
2023-02-03 11:00:31.473 DEBUG (SyncWorker_2) [pymodbus.transaction] Adding transaction 712
2023-02-03 11:00:31.473 DEBUG (SyncWorker_2) [pymodbus.transaction] Getting transaction 712
2023-02-03 11:00:31.473 DEBUG (SyncWorker_2) [pymodbus.transaction] Changing transaction state from "PROCESSING REPLY" to "TRANSACTION_COMPLETE"
2023-02-03 11:00:31.677 DEBUG (SyncWorker_0) [pymodbus.transaction] Current transaction state - TRANSACTION_COMPLETE
2023-02-03 11:00:31.677 DEBUG (SyncWorker_0) [pymodbus.transaction] Running transaction 713
2023-02-03 11:00:31.677 DEBUG (SyncWorker_0) [pymodbus.transaction] SEND: 0x2 0xc9 0x0 0x0 0x0 0x6 0x1 0x4 0x0 0x42 0x0 0x2
2023-02-03 11:00:31.677 DEBUG (SyncWorker_0) [pymodbus.client.base] New Transaction state "SENDING"
2023-02-03 11:00:31.678 DEBUG (SyncWorker_0) [pymodbus.transaction] Changing transaction state from "SENDING" to "WAITING FOR REPLY"
2023-02-03 11:00:31.722 DEBUG (SyncWorker_0) [pymodbus.transaction] Changing transaction state from "WAITING FOR REPLY" to "PROCESSING REPLY"
2023-02-03 11:00:31.722 DEBUG (SyncWorker_0) [pymodbus.transaction] RECV: 0x2 0xc9 0x0 0x0 0x0 0x7 0x1 0x4 0x4 0xbe 0x77 0x49 0xe0
2023-02-03 11:00:31.722 DEBUG (SyncWorker_0) [pymodbus.framer.socket_framer] Processing: 0x2 0xc9 0x0 0x0 0x0 0x7 0x1 0x4 0x4 0xbe 0x77 0x49 0xe0
2023-02-03 11:00:31.723 DEBUG (SyncWorker_0) [pymodbus.factory] Factory Response[ReadInputRegistersResponse': 4]
2023-02-03 11:00:31.723 DEBUG (SyncWorker_0) [pymodbus.transaction] Adding transaction 713
2023-02-03 11:00:31.723 DEBUG (SyncWorker_0) [pymodbus.transaction] Getting transaction 713
2023-02-03 11:00:31.723 DEBUG (SyncWorker_0) [pymodbus.transaction] Changing transaction state from "PROCESSING REPLY" to "TRANSACTION_COMPLETE"
2023-02-03 11:00:31.928 DEBUG (SyncWorker_20) [pymodbus.transaction] Current transaction state - TRANSACTION_COMPLETE
2023-02-03 11:00:31.928 DEBUG (SyncWorker_20) [pymodbus.transaction] Running transaction 714
2023-02-03 11:00:31.928 DEBUG (SyncWorker_20) [pymodbus.transaction] SEND: 0x2 0xca 0x0 0x0 0x0 0x6 0x1 0x4 0x0 0x46 0x0 0x2
2023-02-03 11:00:31.929 DEBUG (SyncWorker_20) [pymodbus.client.base] New Transaction state "SENDING"
2023-02-03 11:00:31.930 DEBUG (SyncWorker_20) [pymodbus.transaction] Changing transaction state from "SENDING" to "WAITING FOR REPLY"
2023-02-03 11:00:31.970 DEBUG (SyncWorker_20) [pymodbus.transaction] Changing transaction state from "WAITING FOR REPLY" to "PROCESSING REPLY"
2023-02-03 11:00:31.970 DEBUG (SyncWorker_20) [pymodbus.transaction] RECV: 0x2 0xca 0x0 0x0 0x0 0x7 0x1 0x4 0x4 0x42 0x47 0xef 0xbc
2023-02-03 11:00:31.970 DEBUG (SyncWorker_20) [pymodbus.framer.socket_framer] Processing: 0x2 0xca 0x0 0x0 0x0 0x7 0x1 0x4 0x4 0x42 0x47 0xef 0xbc
2023-02-03 11:00:31.971 DEBUG (SyncWorker_20) [pymodbus.factory] Factory Response[ReadInputRegistersResponse': 4]
2023-02-03 11:00:31.971 DEBUG (SyncWorker_20) [pymodbus.transaction] Adding transaction 714
2023-02-03 11:00:31.971 DEBUG (SyncWorker_20) [pymodbus.transaction] Getting transaction 714
2023-02-03 11:00:31.971 DEBUG (SyncWorker_20) [pymodbus.transaction] Changing transaction state from "PROCESSING REPLY" to "TRANSACTION_COMPLETE"
2023-02-03 11:00:32.176 DEBUG (SyncWorker_9) [pymodbus.transaction] Current transaction state - TRANSACTION_COMPLETE
2023-02-03 11:00:32.177 DEBUG (SyncWorker_9) [pymodbus.transaction] Running transaction 715
2023-02-03 11:00:32.177 DEBUG (SyncWorker_9) [pymodbus.transaction] SEND: 0x2 0xcb 0x0 0x0 0x0 0x6 0x1 0x4 0x0 0x4c 0x0 0x2
2023-02-03 11:00:32.177 DEBUG (SyncWorker_9) [pymodbus.client.base] New Transaction state "SENDING"
2023-02-03 11:00:32.178 DEBUG (SyncWorker_9) [pymodbus.transaction] Changing transaction state from "SENDING" to "WAITING FOR REPLY"
2023-02-03 11:00:32.220 DEBUG (SyncWorker_9) [pymodbus.transaction] Changing transaction state from "WAITING FOR REPLY" to "PROCESSING REPLY"
2023-02-03 11:00:32.220 DEBUG (SyncWorker_9) [pymodbus.transaction] RECV: 0x2 0xcb 0x0 0x0 0x0 0x7 0x1 0x4 0x4 0x43 0xdd 0x3 0x12
2023-02-03 11:00:32.220 DEBUG (SyncWorker_9) [pymodbus.framer.socket_framer] Processing: 0x2 0xcb 0x0 0x0 0x0 0x7 0x1 0x4 0x4 0x43 0xdd 0x3 0x12
2023-02-03 11:00:32.220 DEBUG (SyncWorker_9) [pymodbus.factory] Factory Response[ReadInputRegistersResponse': 4]
2023-02-03 11:00:32.221 DEBUG (SyncWorker_9) [pymodbus.transaction] Adding transaction 715
2023-02-03 11:00:32.221 DEBUG (SyncWorker_9) [pymodbus.transaction] Getting transaction 715
2023-02-03 11:00:32.221 DEBUG (SyncWorker_9) [pymodbus.transaction] Changing transaction state from "PROCESSING REPLY" to "TRANSACTION_COMPLETE"
2023-02-03 11:00:32.425 DEBUG (SyncWorker_6) [pymodbus.transaction] Current transaction state - TRANSACTION_COMPLETE
2023-02-03 11:00:32.425 DEBUG (SyncWorker_6) [pymodbus.transaction] Running transaction 716
2023-02-03 11:00:32.426 DEBUG (SyncWorker_6) [pymodbus.transaction] SEND: 0x2 0xcc 0x0 0x0 0x0 0x6 0x1 0x4 0x0 0x4e 0x0 0x2
2023-02-03 11:00:32.426 DEBUG (SyncWorker_6) [pymodbus.client.base] New Transaction state "SENDING"
2023-02-03 11:00:32.427 DEBUG (SyncWorker_6) [pymodbus.transaction] Changing transaction state from "SENDING" to "WAITING FOR REPLY"
2023-02-03 11:00:32.467 DEBUG (SyncWorker_6) [pymodbus.transaction] Changing transaction state from "WAITING FOR REPLY" to "PROCESSING REPLY"
2023-02-03 11:00:32.468 DEBUG (SyncWorker_6) [pymodbus.transaction] RECV: 0x2 0xcc 0x0 0x0 0x0 0x7 0x1 0x4 0x4 0x42 0x0 0xba 0x5e
2023-02-03 11:00:32.468 DEBUG (SyncWorker_6) [pymodbus.framer.socket_framer] Processing: 0x2 0xcc 0x0 0x0 0x0 0x7 0x1 0x4 0x4 0x42 0x0 0xba 0x5e
2023-02-03 11:00:32.468 DEBUG (SyncWorker_6) [pymodbus.factory] Factory Response[ReadInputRegistersResponse': 4]
2023-02-03 11:00:32.469 DEBUG (SyncWorker_6) [pymodbus.transaction] Adding transaction 716
2023-02-03 11:00:32.469 DEBUG (SyncWorker_6) [pymodbus.transaction] Getting transaction 716
2023-02-03 11:00:32.469 DEBUG (SyncWorker_6) [pymodbus.transaction] Changing transaction state from "PROCESSING REPLY" to "TRANSACTION_COMPLETE"
2023-02-03 11:00:32.676 DEBUG (SyncWorker_28) [pymodbus.transaction] Current transaction state - TRANSACTION_COMPLETE
2023-02-03 11:00:32.676 DEBUG (SyncWorker_28) [pymodbus.transaction] Running transaction 717
2023-02-03 11:00:32.676 DEBUG (SyncWorker_28) [pymodbus.transaction] SEND: 0x2 0xcd 0x0 0x0 0x0 0x6 0x1 0x4 0x0 0x50 0x0 0x2
2023-02-03 11:00:32.677 DEBUG (SyncWorker_28) [pymodbus.client.base] New Transaction state "SENDING"
2023-02-03 11:00:32.678 DEBUG (SyncWorker_28) [pymodbus.transaction] Changing transaction state from "SENDING" to "WAITING FOR REPLY"
2023-02-03 11:00:32.720 DEBUG (SyncWorker_28) [pymodbus.transaction] Changing transaction state from "WAITING FOR REPLY" to "PROCESSING REPLY"
2023-02-03 11:00:32.721 DEBUG (SyncWorker_28) [pymodbus.transaction] RECV: 0x2 0xcd 0x0 0x0 0x0 0x7 0x1 0x4 0x4 0x46 0x88 0x1d 0x40
2023-02-03 11:00:32.721 DEBUG (SyncWorker_28) [pymodbus.framer.socket_framer] Processing: 0x2 0xcd 0x0 0x0 0x0 0x7 0x1 0x4 0x4 0x46 0x88 0x1d 0x40
2023-02-03 11:00:32.721 DEBUG (SyncWorker_28) [pymodbus.factory] Factory Response[ReadInputRegistersResponse': 4]
2023-02-03 11:00:32.722 DEBUG (SyncWorker_28) [pymodbus.transaction] Adding transaction 717
2023-02-03 11:00:32.722 DEBUG (SyncWorker_28) [pymodbus.transaction] Getting transaction 717
2023-02-03 11:00:32.722 DEBUG (SyncWorker_28) [pymodbus.transaction] Changing transaction state from "PROCESSING REPLY" to "TRANSACTION_COMPLETE"
2023-02-03 11:00:32.926 DEBUG (SyncWorker_22) [pymodbus.transaction] Current transaction state - TRANSACTION_COMPLETE
2023-02-03 11:00:32.927 DEBUG (SyncWorker_22) [pymodbus.transaction] Running transaction 718
2023-02-03 11:00:32.927 DEBUG (SyncWorker_22) [pymodbus.transaction] SEND: 0x2 0xce 0x0 0x0 0x0 0x6 0x1 0x4 0x0 0x52 0x0 0x2
2023-02-03 11:00:32.927 DEBUG (SyncWorker_22) [pymodbus.client.base] New Transaction state "SENDING"
2023-02-03 11:00:32.929 DEBUG (SyncWorker_22) [pymodbus.transaction] Changing transaction state from "SENDING" to "WAITING FOR REPLY"
2023-02-03 11:00:32.969 DEBUG (SyncWorker_22) [pymodbus.transaction] Changing transaction state from "WAITING FOR REPLY" to "PROCESSING REPLY"
2023-02-03 11:00:32.970 DEBUG (SyncWorker_22) [pymodbus.transaction] RECV: 0x2 0xce 0x0 0x0 0x0 0x7 0x1 0x4 0x4 0x48 0x0 0x0 0x0
2023-02-03 11:00:32.970 DEBUG (SyncWorker_22) [pymodbus.framer.socket_framer] Processing: 0x2 0xce 0x0 0x0 0x0 0x7 0x1 0x4 0x4 0x48 0x0 0x0 0x0
2023-02-03 11:00:32.970 DEBUG (SyncWorker_22) [pymodbus.factory] Factory Response[ReadInputRegistersResponse': 4]
2023-02-03 11:00:32.971 DEBUG (SyncWorker_22) [pymodbus.transaction] Adding transaction 718
2023-02-03 11:00:32.971 DEBUG (SyncWorker_22) [pymodbus.transaction] Getting transaction 718
2023-02-03 11:00:32.971 DEBUG (SyncWorker_22) [pymodbus.transaction] Changing transaction state from "PROCESSING REPLY" to "TRANSACTION_COMPLETE"
2023-02-03 11:00:33.175 DEBUG (SyncWorker_25) [pymodbus.transaction] Current transaction state - TRANSACTION_COMPLETE
2023-02-03 11:00:33.176 DEBUG (SyncWorker_25) [pymodbus.transaction] Running transaction 719
2023-02-03 11:00:33.176 DEBUG (SyncWorker_25) [pymodbus.transaction] SEND: 0x2 0xcf 0x0 0x0 0x0 0x6 0x1 0x4 0x0 0x56 0x0 0x2
2023-02-03 11:00:33.176 DEBUG (SyncWorker_25) [pymodbus.client.base] New Transaction state "SENDING"
2023-02-03 11:00:33.177 DEBUG (SyncWorker_25) [pymodbus.transaction] Changing transaction state from "SENDING" to "WAITING FOR REPLY"
2023-02-03 11:00:33.218 DEBUG (SyncWorker_25) [pymodbus.transaction] Changing transaction state from "WAITING FOR REPLY" to "PROCESSING REPLY"
2023-02-03 11:00:33.219 DEBUG (SyncWorker_25) [pymodbus.transaction] RECV: 0x2 0xcf 0x0 0x0 0x0 0x7 0x1 0x4 0x4 0x46 0x4b 0xe4 0x3
2023-02-03 11:00:33.219 DEBUG (SyncWorker_25) [pymodbus.framer.socket_framer] Processing: 0x2 0xcf 0x0 0x0 0x0 0x7 0x1 0x4 0x4 0x46 0x4b 0xe4 0x3
2023-02-03 11:00:33.219 DEBUG (SyncWorker_25) [pymodbus.factory] Factory Response[ReadInputRegistersResponse': 4]
2023-02-03 11:00:33.220 DEBUG (SyncWorker_25) [pymodbus.transaction] Adding transaction 719
2023-02-03 11:00:33.220 DEBUG (SyncWorker_25) [pymodbus.transaction] Getting transaction 719
2023-02-03 11:00:33.220 DEBUG (SyncWorker_25) [pymodbus.transaction] Changing transaction state from "PROCESSING REPLY" to "TRANSACTION_COMPLETE"
2023-02-03 11:00:33.423 DEBUG (SyncWorker_24) [pymodbus.transaction] Current transaction state - TRANSACTION_COMPLETE
2023-02-03 11:00:33.423 DEBUG (SyncWorker_24) [pymodbus.transaction] Running transaction 720
2023-02-03 11:00:33.423 DEBUG (SyncWorker_24) [pymodbus.transaction] SEND: 0x2 0xd0 0x0 0x0 0x0 0x6 0x1 0x4 0x0 0x64 0x0 0x2
2023-02-03 11:00:33.424 DEBUG (SyncWorker_24) [pymodbus.client.base] New Transaction state "SENDING"
2023-02-03 11:00:33.425 DEBUG (SyncWorker_24) [pymodbus.transaction] Changing transaction state from "SENDING" to "WAITING FOR REPLY"
2023-02-03 11:00:33.466 DEBUG (SyncWorker_24) [pymodbus.transaction] Changing transaction state from "WAITING FOR REPLY" to "PROCESSING REPLY"
2023-02-03 11:00:33.466 DEBUG (SyncWorker_24) [pymodbus.transaction] RECV: 0x2 0xd0 0x0 0x0 0x0 0x7 0x1 0x4 0x4 0x43 0xdf 0xe6 0x4a
2023-02-03 11:00:33.466 DEBUG (SyncWorker_24) [pymodbus.framer.socket_framer] Processing: 0x2 0xd0 0x0 0x0 0x0 0x7 0x1 0x4 0x4 0x43 0xdf 0xe6 0x4a
2023-02-03 11:00:33.466 DEBUG (SyncWorker_24) [pymodbus.factory] Factory Response[ReadInputRegistersResponse': 4]
2023-02-03 11:00:33.467 DEBUG (SyncWorker_24) [pymodbus.transaction] Adding transaction 720
2023-02-03 11:00:33.467 DEBUG (SyncWorker_24) [pymodbus.transaction] Getting transaction 720
2023-02-03 11:00:33.467 DEBUG (SyncWorker_24) [pymodbus.transaction] Changing transaction state from "PROCESSING REPLY" to "TRANSACTION_COMPLETE"
2023-02-03 11:00:33.670 DEBUG (SyncWorker_37) [pymodbus.transaction] Current transaction state - TRANSACTION_COMPLETE
2023-02-03 11:00:33.671 DEBUG (SyncWorker_37) [pymodbus.transaction] Running transaction 721
2023-02-03 11:00:33.671 DEBUG (SyncWorker_37) [pymodbus.transaction] SEND: 0x2 0xd1 0x0 0x0 0x0 0x6 0x1 0x4 0x0 0x66 0x0 0x2
2023-02-03 11:00:33.671 DEBUG (SyncWorker_37) [pymodbus.client.base] New Transaction state "SENDING"
2023-02-03 11:00:33.672 DEBUG (SyncWorker_37) [pymodbus.transaction] Changing transaction state from "SENDING" to "WAITING FOR REPLY"
2023-02-03 11:00:33.713 DEBUG (SyncWorker_37) [pymodbus.transaction] Changing transaction state from "WAITING FOR REPLY" to "PROCESSING REPLY"
2023-02-03 11:00:33.713 DEBUG (SyncWorker_37) [pymodbus.transaction] RECV: 0x2 0xd1 0x0 0x0 0x0 0x7 0x1 0x4 0x4 0x46 0x4b 0xe5 0x1c
2023-02-03 11:00:33.713 DEBUG (SyncWorker_37) [pymodbus.framer.socket_framer] Processing: 0x2 0xd1 0x0 0x0 0x0 0x7 0x1 0x4 0x4 0x46 0x4b 0xe5 0x1c
2023-02-03 11:00:33.714 DEBUG (SyncWorker_37) [pymodbus.factory] Factory Response[ReadInputRegistersResponse': 4]
2023-02-03 11:00:33.714 DEBUG (SyncWorker_37) [pymodbus.transaction] Adding transaction 721
2023-02-03 11:00:33.714 DEBUG (SyncWorker_37) [pymodbus.transaction] Getting transaction 721
2023-02-03 11:00:33.714 DEBUG (SyncWorker_37) [pymodbus.transaction] Changing transaction state from "PROCESSING REPLY" to "TRANSACTION_COMPLETE"
2023-02-03 11:00:33.917 DEBUG (SyncWorker_30) [pymodbus.transaction] Current transaction state - TRANSACTION_COMPLETE
2023-02-03 11:00:33.918 DEBUG (SyncWorker_30) [pymodbus.transaction] Running transaction 722
2023-02-03 11:00:33.918 DEBUG (SyncWorker_30) [pymodbus.transaction] SEND: 0x2 0xd2 0x0 0x0 0x0 0x6 0x1 0x4 0x0 0x68 0x0 0x2
2023-02-03 11:00:33.918 DEBUG (SyncWorker_30) [pymodbus.client.base] New Transaction state "SENDING"
2023-02-03 11:00:33.919 DEBUG (SyncWorker_30) [pymodbus.transaction] Changing transaction state from "SENDING" to "WAITING FOR REPLY"
2023-02-03 11:00:33.960 DEBUG (SyncWorker_30) [pymodbus.transaction] Changing transaction state from "WAITING FOR REPLY" to "PROCESSING REPLY"
2023-02-03 11:00:33.960 DEBUG (SyncWorker_30) [pymodbus.transaction] RECV: 0x2 0xd2 0x0 0x0 0x0 0x7 0x1 0x4 0x4 0x3c 0x6c 0xdb 0x1b
2023-02-03 11:00:33.961 DEBUG (SyncWorker_30) [pymodbus.framer.socket_framer] Processing: 0x2 0xd2 0x0 0x0 0x0 0x7 0x1 0x4 0x4 0x3c 0x6c 0xdb 0x1b
2023-02-03 11:00:33.961 DEBUG (SyncWorker_30) [pymodbus.factory] Factory Response[ReadInputRegistersResponse': 4]
2023-02-03 11:00:33.961 DEBUG (SyncWorker_30) [pymodbus.transaction] Adding transaction 722
2023-02-03 11:00:33.962 DEBUG (SyncWorker_30) [pymodbus.transaction] Getting transaction 722
2023-02-03 11:00:33.962 DEBUG (SyncWorker_30) [pymodbus.transaction] Changing transaction state from "PROCESSING REPLY" to "TRANSACTION_COMPLETE"
2023-02-03 11:00:34.165 DEBUG (SyncWorker_16) [pymodbus.transaction] Current transaction state - TRANSACTION_COMPLETE
2023-02-03 11:00:34.165 DEBUG (SyncWorker_16) [pymodbus.transaction] Running transaction 723
2023-02-03 11:00:34.166 DEBUG (SyncWorker_16) [pymodbus.transaction] SEND: 0x2 0xd3 0x0 0x0 0x0 0x6 0x1 0x4 0x0 0x6a 0x0 0x2
2023-02-03 11:00:34.166 DEBUG (SyncWorker_16) [pymodbus.client.base] New Transaction state "SENDING"
2023-02-03 11:00:34.168 DEBUG (SyncWorker_16) [pymodbus.transaction] Changing transaction state from "SENDING" to "WAITING FOR REPLY"
2023-02-03 11:00:34.207 DEBUG (SyncWorker_16) [pymodbus.transaction] Changing transaction state from "WAITING FOR REPLY" to "PROCESSING REPLY"
2023-02-03 11:00:34.207 DEBUG (SyncWorker_16) [pymodbus.transaction] RECV: 0x2 0xd3 0x0 0x0 0x0 0x7 0x1 0x4 0x4 0x3e 0x18 0x3d 0x9a
2023-02-03 11:00:34.208 DEBUG (SyncWorker_16) [pymodbus.framer.socket_framer] Processing: 0x2 0xd3 0x0 0x0 0x0 0x7 0x1 0x4 0x4 0x3e 0x18 0x3d 0x9a
2023-02-03 11:00:34.208 DEBUG (SyncWorker_16) [pymodbus.factory] Factory Response[ReadInputRegistersResponse': 4]
2023-02-03 11:00:34.208 DEBUG (SyncWorker_16) [pymodbus.transaction] Adding transaction 723
2023-02-03 11:00:34.208 DEBUG (SyncWorker_16) [pymodbus.transaction] Getting transaction 723
2023-02-03 11:00:34.209 DEBUG (SyncWorker_16) [pymodbus.transaction] Changing transaction state from "PROCESSING REPLY" to "TRANSACTION_COMPLETE"
2023-02-03 11:00:34.412 DEBUG (SyncWorker_34) [pymodbus.transaction] Current transaction state - TRANSACTION_COMPLETE
2023-02-03 11:00:34.413 DEBUG (SyncWorker_34) [pymodbus.transaction] Running transaction 724
2023-02-03 11:00:34.413 DEBUG (SyncWorker_34) [pymodbus.transaction] SEND: 0x2 0xd4 0x0 0x0 0x0 0x6 0x1 0x4 0x0 0xc8 0x0 0x2
2023-02-03 11:00:34.413 DEBUG (SyncWorker_34) [pymodbus.client.base] New Transaction state "SENDING"
2023-02-03 11:00:34.414 DEBUG (SyncWorker_34) [pymodbus.transaction] Changing transaction state from "SENDING" to "WAITING FOR REPLY"
2023-02-03 11:00:34.459 DEBUG (SyncWorker_34) [pymodbus.transaction] Changing transaction state from "WAITING FOR REPLY" to "PROCESSING REPLY"
2023-02-03 11:00:34.459 DEBUG (SyncWorker_34) [pymodbus.transaction] RECV: 0x2 0xd4 0x0 0x0 0x0 0x7 0x1 0x4 0x4 0x43 0xc5 0xe4 0x1e
2023-02-03 11:00:34.459 DEBUG (SyncWorker_34) [pymodbus.framer.socket_framer] Processing: 0x2 0xd4 0x0 0x0 0x0 0x7 0x1 0x4 0x4 0x43 0xc5 0xe4 0x1e
2023-02-03 11:00:34.460 DEBUG (SyncWorker_34) [pymodbus.factory] Factory Response[ReadInputRegistersResponse': 4]
2023-02-03 11:00:34.460 DEBUG (SyncWorker_34) [pymodbus.transaction] Adding transaction 724
2023-02-03 11:00:34.460 DEBUG (SyncWorker_34) [pymodbus.transaction] Getting transaction 724
2023-02-03 11:00:34.461 DEBUG (SyncWorker_34) [pymodbus.transaction] Changing transaction state from "PROCESSING REPLY" to "TRANSACTION_COMPLETE"
2023-02-03 11:00:34.665 DEBUG (SyncWorker_23) [pymodbus.transaction] Current transaction state - TRANSACTION_COMPLETE
2023-02-03 11:00:34.665 DEBUG (SyncWorker_23) [pymodbus.transaction] Running transaction 725
2023-02-03 11:00:34.665 DEBUG (SyncWorker_23) [pymodbus.transaction] SEND: 0x2 0xd5 0x0 0x0 0x0 0x6 0x1 0x4 0x0 0xca 0x0 0x2
2023-02-03 11:00:34.666 DEBUG (SyncWorker_23) [pymodbus.client.base] New Transaction state "SENDING"
2023-02-03 11:00:34.666 DEBUG (SyncWorker_23) [pymodbus.transaction] Changing transaction state from "SENDING" to "WAITING FOR REPLY"
2023-02-03 11:00:34.710 DEBUG (SyncWorker_23) [pymodbus.transaction] Changing transaction state from "WAITING FOR REPLY" to "PROCESSING REPLY"
2023-02-03 11:00:34.710 DEBUG (SyncWorker_23) [pymodbus.transaction] RECV: 0x2 0xd5 0x0 0x0 0x0 0x7 0x1 0x4 0x4 0x43 0xc6 0xc1 0x30
2023-02-03 11:00:34.711 DEBUG (SyncWorker_23) [pymodbus.framer.socket_framer] Processing: 0x2 0xd5 0x0 0x0 0x0 0x7 0x1 0x4 0x4 0x43 0xc6 0xc1 0x30
2023-02-03 11:00:34.711 DEBUG (SyncWorker_23) [pymodbus.factory] Factory Response[ReadInputRegistersResponse': 4]
2023-02-03 11:00:34.711 DEBUG (SyncWorker_23) [pymodbus.transaction] Adding transaction 725
2023-02-03 11:00:34.711 DEBUG (SyncWorker_23) [pymodbus.transaction] Getting transaction 725
2023-02-03 11:00:34.711 DEBUG (SyncWorker_23) [pymodbus.transaction] Changing transaction state from "PROCESSING REPLY" to "TRANSACTION_COMPLETE"
2023-02-03 11:00:34.917 DEBUG (SyncWorker_7) [pymodbus.transaction] Current transaction state - TRANSACTION_COMPLETE
2023-02-03 11:00:34.917 DEBUG (SyncWorker_7) [pymodbus.transaction] Running transaction 726
2023-02-03 11:00:34.918 DEBUG (SyncWorker_7) [pymodbus.transaction] SEND: 0x2 0xd6 0x0 0x0 0x0 0x6 0x1 0x4 0x0 0xcc 0x0 0x2
2023-02-03 11:00:34.918 DEBUG (SyncWorker_7) [pymodbus.client.base] New Transaction state "SENDING"
2023-02-03 11:00:34.919 DEBUG (SyncWorker_7) [pymodbus.transaction] Changing transaction state from "SENDING" to "WAITING FOR REPLY"
2023-02-03 11:00:34.963 DEBUG (SyncWorker_7) [pymodbus.transaction] Changing transaction state from "WAITING FOR REPLY" to "PROCESSING REPLY"
2023-02-03 11:00:34.963 DEBUG (SyncWorker_7) [pymodbus.transaction] RECV: 0x2 0xd6 0x0 0x0 0x0 0x7 0x1 0x4 0x4 0x43 0xc6 0x40 0xb3
2023-02-03 11:00:34.964 DEBUG (SyncWorker_7) [pymodbus.framer.socket_framer] Processing: 0x2 0xd6 0x0 0x0 0x0 0x7 0x1 0x4 0x4 0x43 0xc6 0x40 0xb3
2023-02-03 11:00:34.964 DEBUG (SyncWorker_7) [pymodbus.factory] Factory Response[ReadInputRegistersResponse': 4]
2023-02-03 11:00:34.964 DEBUG (SyncWorker_7) [pymodbus.transaction] Adding transaction 726
2023-02-03 11:00:34.964 DEBUG (SyncWorker_7) [pymodbus.transaction] Getting transaction 726
2023-02-03 11:00:34.965 DEBUG (SyncWorker_7) [pymodbus.transaction] Changing transaction state from "PROCESSING REPLY" to "TRANSACTION_COMPLETE"
2023-02-03 11:00:35.169 DEBUG (SyncWorker_36) [pymodbus.transaction] Current transaction state - TRANSACTION_COMPLETE
2023-02-03 11:00:35.169 DEBUG (SyncWorker_36) [pymodbus.transaction] Running transaction 727
2023-02-03 11:00:35.169 DEBUG (SyncWorker_36) [pymodbus.transaction] SEND: 0x2 0xd7 0x0 0x0 0x0 0x6 0x1 0x4 0x0 0xce 0x0 0x2
2023-02-03 11:00:35.170 DEBUG (SyncWorker_36) [pymodbus.client.base] New Transaction state "SENDING"
2023-02-03 11:00:35.172 DEBUG (SyncWorker_36) [pymodbus.transaction] Changing transaction state from "SENDING" to "WAITING FOR REPLY"
2023-02-03 11:00:35.218 DEBUG (SyncWorker_36) [pymodbus.transaction] Changing transaction state from "WAITING FOR REPLY" to "PROCESSING REPLY"
2023-02-03 11:00:35.219 DEBUG (SyncWorker_36) [pymodbus.transaction] RECV: 0x2 0xd7 0x0 0x0 0x0 0x7 0x1 0x4 0x4 0x43 0xc6 0x72 0x61
2023-02-03 11:00:35.219 DEBUG (SyncWorker_36) [pymodbus.framer.socket_framer] Processing: 0x2 0xd7 0x0 0x0 0x0 0x7 0x1 0x4 0x4 0x43 0xc6 0x72 0x61
2023-02-03 11:00:35.219 DEBUG (SyncWorker_36) [pymodbus.factory] Factory Response[ReadInputRegistersResponse': 4]
2023-02-03 11:00:35.219 DEBUG (SyncWorker_36) [pymodbus.transaction] Adding transaction 727
2023-02-03 11:00:35.220 DEBUG (SyncWorker_36) [pymodbus.transaction] Getting transaction 727
2023-02-03 11:00:35.220 DEBUG (SyncWorker_36) [pymodbus.transaction] Changing transaction state from "PROCESSING REPLY" to "TRANSACTION_COMPLETE"
2023-02-03 11:00:35.424 DEBUG (SyncWorker_18) [pymodbus.transaction] Current transaction state - TRANSACTION_COMPLETE
2023-02-03 11:00:35.424 DEBUG (SyncWorker_18) [pymodbus.transaction] Running transaction 728
2023-02-03 11:00:35.425 DEBUG (SyncWorker_18) [pymodbus.transaction] SEND: 0x2 0xd8 0x0 0x0 0x0 0x6 0x1 0x4 0x0 0xe0 0x0 0x2
2023-02-03 11:00:35.425 DEBUG (SyncWorker_18) [pymodbus.client.base] New Transaction state "SENDING"
2023-02-03 11:00:35.425 DEBUG (SyncWorker_18) [pymodbus.transaction] Changing transaction state from "SENDING" to "WAITING FOR REPLY"
2023-02-03 11:00:35.473 DEBUG (SyncWorker_18) [pymodbus.transaction] Changing transaction state from "WAITING FOR REPLY" to "PROCESSING REPLY"
2023-02-03 11:00:35.474 DEBUG (SyncWorker_18) [pymodbus.transaction] RECV: 0x2 0xd8 0x0 0x0 0x0 0x7 0x1 0x4 0x4 0x3c 0x55 0x17 0x6e
2023-02-03 11:00:35.474 DEBUG (SyncWorker_18) [pymodbus.framer.socket_framer] Processing: 0x2 0xd8 0x0 0x0 0x0 0x7 0x1 0x4 0x4 0x3c 0x55 0x17 0x6e
2023-02-03 11:00:35.474 DEBUG (SyncWorker_18) [pymodbus.factory] Factory Response[ReadInputRegistersResponse': 4]
2023-02-03 11:00:35.475 DEBUG (SyncWorker_18) [pymodbus.transaction] Adding transaction 728
2023-02-03 11:00:35.475 DEBUG (SyncWorker_18) [pymodbus.transaction] Getting transaction 728
2023-02-03 11:00:35.475 DEBUG (SyncWorker_18) [pymodbus.transaction] Changing transaction state from "PROCESSING REPLY" to "TRANSACTION_COMPLETE"
2023-02-03 11:00:35.678 DEBUG (SyncWorker_11) [pymodbus.transaction] Current transaction state - TRANSACTION_COMPLETE
2023-02-03 11:00:35.679 DEBUG (SyncWorker_11) [pymodbus.transaction] Running transaction 729
2023-02-03 11:00:35.679 DEBUG (SyncWorker_11) [pymodbus.transaction] SEND: 0x2 0xd9 0x0 0x0 0x0 0x6 0x1 0x4 0x0 0xea 0x0 0x2
2023-02-03 11:00:35.679 DEBUG (SyncWorker_11) [pymodbus.client.base] New Transaction state "SENDING"
2023-02-03 11:00:35.680 DEBUG (SyncWorker_11) [pymodbus.transaction] Changing transaction state from "SENDING" to "WAITING FOR REPLY"
2023-02-03 11:00:35.725 DEBUG (SyncWorker_11) [pymodbus.transaction] Changing transaction state from "WAITING FOR REPLY" to "PROCESSING REPLY"
2023-02-03 11:00:35.725 DEBUG (SyncWorker_11) [pymodbus.transaction] RECV: 0x2 0xd9 0x0 0x0 0x0 0x7 0x1 0x4 0x4 0x3f 0x4f 0xe0 0x5a
2023-02-03 11:00:35.726 DEBUG (SyncWorker_11) [pymodbus.framer.socket_framer] Processing: 0x2 0xd9 0x0 0x0 0x0 0x7 0x1 0x4 0x4 0x3f 0x4f 0xe0 0x5a
2023-02-03 11:00:35.726 DEBUG (SyncWorker_11) [pymodbus.factory] Factory Response[ReadInputRegistersResponse': 4]
2023-02-03 11:00:35.726 DEBUG (SyncWorker_11) [pymodbus.transaction] Adding transaction 729
2023-02-03 11:00:35.726 DEBUG (SyncWorker_11) [pymodbus.transaction] Getting transaction 729
2023-02-03 11:00:35.727 DEBUG (SyncWorker_11) [pymodbus.transaction] Changing transaction state from "PROCESSING REPLY" to "TRANSACTION_COMPLETE"
2023-02-03 11:00:35.932 DEBUG (SyncWorker_31) [pymodbus.transaction] Current transaction state - TRANSACTION_COMPLETE
2023-02-03 11:00:35.933 DEBUG (SyncWorker_31) [pymodbus.transaction] Running transaction 730
2023-02-03 11:00:35.933 DEBUG (SyncWorker_31) [pymodbus.transaction] SEND: 0x2 0xda 0x0 0x0 0x0 0x6 0x1 0x4 0x0 0xec 0x0 0x2
2023-02-03 11:00:35.933 DEBUG (SyncWorker_31) [pymodbus.client.base] New Transaction state "SENDING"
2023-02-03 11:00:35.935 DEBUG (SyncWorker_31) [pymodbus.transaction] Changing transaction state from "SENDING" to "WAITING FOR REPLY"
2023-02-03 11:00:35.979 DEBUG (SyncWorker_31) [pymodbus.transaction] Changing transaction state from "WAITING FOR REPLY" to "PROCESSING REPLY"
2023-02-03 11:00:35.979 DEBUG (SyncWorker_31) [pymodbus.transaction] RECV: 0x2 0xda 0x0 0x0 0x0 0x7 0x1 0x4 0x4 0x0 0x0 0x0 0x0
2023-02-03 11:00:35.979 DEBUG (SyncWorker_31) [pymodbus.framer.socket_framer] Processing: 0x2 0xda 0x0 0x0 0x0 0x7 0x1 0x4 0x4 0x0 0x0 0x0 0x0
2023-02-03 11:00:35.980 DEBUG (SyncWorker_31) [pymodbus.factory] Factory Response[ReadInputRegistersResponse': 4]
2023-02-03 11:00:35.980 DEBUG (SyncWorker_31) [pymodbus.transaction] Adding transaction 730
2023-02-03 11:00:35.980 DEBUG (SyncWorker_31) [pymodbus.transaction] Getting transaction 730
2023-02-03 11:00:35.980 DEBUG (SyncWorker_31) [pymodbus.transaction] Changing transaction state from "PROCESSING REPLY" to "TRANSACTION_COMPLETE"
2023-02-03 11:00:36.184 DEBUG (SyncWorker_26) [pymodbus.transaction] Current transaction state - TRANSACTION_COMPLETE
2023-02-03 11:00:36.185 DEBUG (SyncWorker_26) [pymodbus.transaction] Running transaction 731
2023-02-03 11:00:36.185 DEBUG (SyncWorker_26) [pymodbus.transaction] SEND: 0x2 0xdb 0x0 0x0 0x0 0x6 0x1 0x4 0x0 0xee 0x0 0x2
2023-02-03 11:00:36.185 DEBUG (SyncWorker_26) [pymodbus.client.base] New Transaction state "SENDING"
2023-02-03 11:00:36.186 DEBUG (SyncWorker_26) [pymodbus.transaction] Changing transaction state from "SENDING" to "WAITING FOR REPLY"
2023-02-03 11:00:36.232 DEBUG (SyncWorker_26) [pymodbus.transaction] Changing transaction state from "WAITING FOR REPLY" to "PROCESSING REPLY"
2023-02-03 11:00:36.232 DEBUG (SyncWorker_26) [pymodbus.transaction] RECV: 0x2 0xdb 0x0 0x0 0x0 0x7 0x1 0x4 0x4 0x40 0x27 0x0 0xa0
2023-02-03 11:00:36.232 DEBUG (SyncWorker_26) [pymodbus.framer.socket_framer] Processing: 0x2 0xdb 0x0 0x0 0x0 0x7 0x1 0x4 0x4 0x40 0x27 0x0 0xa0
2023-02-03 11:00:36.232 DEBUG (SyncWorker_26) [pymodbus.factory] Factory Response[ReadInputRegistersResponse': 4]
2023-02-03 11:00:36.233 DEBUG (SyncWorker_26) [pymodbus.transaction] Adding transaction 731
2023-02-03 11:00:36.233 DEBUG (SyncWorker_26) [pymodbus.transaction] Getting transaction 731
2023-02-03 11:00:36.233 DEBUG (SyncWorker_26) [pymodbus.transaction] Changing transaction state from "PROCESSING REPLY" to "TRANSACTION_COMPLETE"
2023-02-03 11:00:36.439 DEBUG (SyncWorker_19) [pymodbus.transaction] Current transaction state - TRANSACTION_COMPLETE
2023-02-03 11:00:36.440 DEBUG (SyncWorker_19) [pymodbus.transaction] Running transaction 732
2023-02-03 11:00:36.440 DEBUG (SyncWorker_19) [pymodbus.transaction] SEND: 0x2 0xdc 0x0 0x0 0x0 0x6 0x1 0x4 0x0 0xf0 0x0 0x2
2023-02-03 11:00:36.440 DEBUG (SyncWorker_19) [pymodbus.client.base] New Transaction state "SENDING"
2023-02-03 11:00:36.441 DEBUG (SyncWorker_19) [pymodbus.transaction] Changing transaction state from "SENDING" to "WAITING FOR REPLY"
2023-02-03 11:00:36.485 DEBUG (SyncWorker_19) [pymodbus.transaction] Changing transaction state from "WAITING FOR REPLY" to "PROCESSING REPLY"
2023-02-03 11:00:36.486 DEBUG (SyncWorker_19) [pymodbus.transaction] RECV: 0x2 0xdc 0x0 0x0 0x0 0x7 0x1 0x4 0x4 0x42 0x3f 0xe1 0xa1
2023-02-03 11:00:36.486 DEBUG (SyncWorker_19) [pymodbus.framer.socket_framer] Processing: 0x2 0xdc 0x0 0x0 0x0 0x7 0x1 0x4 0x4 0x42 0x3f 0xe1 0xa1
2023-02-03 11:00:36.486 DEBUG (SyncWorker_19) [pymodbus.factory] Factory Response[ReadInputRegistersResponse': 4]
2023-02-03 11:00:36.486 DEBUG (SyncWorker_19) [pymodbus.transaction] Adding transaction 732
2023-02-03 11:00:36.487 DEBUG (SyncWorker_19) [pymodbus.transaction] Getting transaction 732
2023-02-03 11:00:36.487 DEBUG (SyncWorker_19) [pymodbus.transaction] Changing transaction state from "PROCESSING REPLY" to "TRANSACTION_COMPLETE"
2023-02-03 11:00:36.691 DEBUG (SyncWorker_17) [pymodbus.transaction] Current transaction state - TRANSACTION_COMPLETE
2023-02-03 11:00:36.691 DEBUG (SyncWorker_17) [pymodbus.transaction] Running transaction 733
2023-02-03 11:00:36.691 DEBUG (SyncWorker_17) [pymodbus.transaction] SEND: 0x2 0xdd 0x0 0x0 0x0 0x6 0x1 0x4 0x0 0xf2 0x0 0x2
2023-02-03 11:00:36.691 DEBUG (SyncWorker_17) [pymodbus.client.base] New Transaction state "SENDING"
2023-02-03 11:00:36.692 DEBUG (SyncWorker_17) [pymodbus.transaction] Changing transaction state from "SENDING" to "WAITING FOR REPLY"
2023-02-03 11:00:36.736 DEBUG (SyncWorker_17) [pymodbus.transaction] Changing transaction state from "WAITING FOR REPLY" to "PROCESSING REPLY"
2023-02-03 11:00:36.736 DEBUG (SyncWorker_17) [pymodbus.transaction] RECV: 0x2 0xdd 0x0 0x0 0x0 0x7 0x1 0x4 0x4 0x0 0x0 0x0 0x0
2023-02-03 11:00:36.736 DEBUG (SyncWorker_17) [pymodbus.framer.socket_framer] Processing: 0x2 0xdd 0x0 0x0 0x0 0x7 0x1 0x4 0x4 0x0 0x0 0x0 0x0
2023-02-03 11:00:36.737 DEBUG (SyncWorker_17) [pymodbus.factory] Factory Response[ReadInputRegistersResponse': 4]
2023-02-03 11:00:36.737 DEBUG (SyncWorker_17) [pymodbus.transaction] Adding transaction 733
2023-02-03 11:00:36.737 DEBUG (SyncWorker_17) [pymodbus.transaction] Getting transaction 733
2023-02-03 11:00:36.737 DEBUG (SyncWorker_17) [pymodbus.transaction] Changing transaction state from "PROCESSING REPLY" to "TRANSACTION_COMPLETE"
2023-02-03 11:00:36.940 DEBUG (SyncWorker_27) [pymodbus.transaction] Current transaction state - TRANSACTION_COMPLETE
2023-02-03 11:00:36.940 DEBUG (SyncWorker_27) [pymodbus.transaction] Running transaction 734
2023-02-03 11:00:36.940 DEBUG (SyncWorker_27) [pymodbus.transaction] SEND: 0x2 0xde 0x0 0x0 0x0 0x6 0x1 0x4 0x0 0xf4 0x0 0x2
2023-02-03 11:00:36.940 DEBUG (SyncWorker_27) [pymodbus.client.base] New Transaction state "SENDING"
2023-02-03 11:00:36.941 DEBUG (SyncWorker_27) [pymodbus.transaction] Changing transaction state from "SENDING" to "WAITING FOR REPLY"
2023-02-03 11:00:36.985 DEBUG (SyncWorker_27) [pymodbus.transaction] Changing transaction state from "WAITING FOR REPLY" to "PROCESSING REPLY"
2023-02-03 11:00:36.985 DEBUG (SyncWorker_27) [pymodbus.transaction] RECV: 0x2 0xde 0x0 0x0 0x0 0x7 0x1 0x4 0x4 0x42 0x40 0xe5 0xaa
2023-02-03 11:00:36.986 DEBUG (SyncWorker_27) [pymodbus.framer.socket_framer] Processing: 0x2 0xde 0x0 0x0 0x0 0x7 0x1 0x4 0x4 0x42 0x40 0xe5 0xaa
2023-02-03 11:00:36.986 DEBUG (SyncWorker_27) [pymodbus.factory] Factory Response[ReadInputRegistersResponse': 4]
2023-02-03 11:00:36.986 DEBUG (SyncWorker_27) [pymodbus.transaction] Adding transaction 734
2023-02-03 11:00:36.986 DEBUG (SyncWorker_27) [pymodbus.transaction] Getting transaction 734
2023-02-03 11:00:36.986 DEBUG (SyncWorker_27) [pymodbus.transaction] Changing transaction state from "PROCESSING REPLY" to "TRANSACTION_COMPLETE"
2023-02-03 11:00:37.189 DEBUG (SyncWorker_21) [pymodbus.transaction] Current transaction state - TRANSACTION_COMPLETE
2023-02-03 11:00:37.189 DEBUG (SyncWorker_21) [pymodbus.transaction] Running transaction 735
2023-02-03 11:00:37.189 DEBUG (SyncWorker_21) [pymodbus.transaction] SEND: 0x2 0xdf 0x0 0x0 0x0 0x6 0x1 0x4 0x0 0xf8 0x0 0x2
2023-02-03 11:00:37.189 DEBUG (SyncWorker_21) [pymodbus.client.base] New Transaction state "SENDING"
2023-02-03 11:00:37.189 DEBUG (SyncWorker_21) [pymodbus.transaction] Changing transaction state from "SENDING" to "WAITING FOR REPLY"
2023-02-03 11:00:37.242 DEBUG (SyncWorker_21) [pymodbus.transaction] Changing transaction state from "WAITING FOR REPLY" to "PROCESSING REPLY"
2023-02-03 11:00:37.242 DEBUG (SyncWorker_21) [pymodbus.transaction] RECV: 0x2 0xdf 0x0 0x0 0x0 0x7 0x1 0x4 0x4 0x40 0x47 0x2 0x13
2023-02-03 11:00:37.242 DEBUG (SyncWorker_21) [pymodbus.framer.socket_framer] Processing: 0x2 0xdf 0x0 0x0 0x0 0x7 0x1 0x4 0x4 0x40 0x47 0x2 0x13
2023-02-03 11:00:37.243 DEBUG (SyncWorker_21) [pymodbus.factory] Factory Response[ReadInputRegistersResponse': 4]
2023-02-03 11:00:37.243 DEBUG (SyncWorker_21) [pymodbus.transaction] Adding transaction 735
2023-02-03 11:00:37.243 DEBUG (SyncWorker_21) [pymodbus.transaction] Getting transaction 735
2023-02-03 11:00:37.243 DEBUG (SyncWorker_21) [pymodbus.transaction] Changing transaction state from "PROCESSING REPLY" to "TRANSACTION_COMPLETE"
2023-02-03 11:00:37.448 DEBUG (SyncWorker_33) [pymodbus.transaction] Current transaction state - TRANSACTION_COMPLETE
2023-02-03 11:00:37.449 DEBUG (SyncWorker_33) [pymodbus.transaction] Running transaction 736
2023-02-03 11:00:37.449 DEBUG (SyncWorker_33) [pymodbus.transaction] SEND: 0x2 0xe0 0x0 0x0 0x0 0x6 0x1 0x4 0x0 0xfa 0x0 0x2
2023-02-03 11:00:37.449 DEBUG (SyncWorker_33) [pymodbus.client.base] New Transaction state "SENDING"
2023-02-03 11:00:37.450 DEBUG (SyncWorker_33) [pymodbus.transaction] Changing transaction state from "SENDING" to "WAITING FOR REPLY"
2023-02-03 11:00:37.498 DEBUG (SyncWorker_33) [pymodbus.transaction] Changing transaction state from "WAITING FOR REPLY" to "PROCESSING REPLY"
2023-02-03 11:00:37.499 DEBUG (SyncWorker_33) [pymodbus.transaction] RECV: 0x2 0xe0 0x0 0x0 0x0 0x7 0x1 0x4 0x4 0x41 0xff 0xf1 0x3a
2023-02-03 11:00:37.499 DEBUG (SyncWorker_33) [pymodbus.framer.socket_framer] Processing: 0x2 0xe0 0x0 0x0 0x0 0x7 0x1 0x4 0x4 0x41 0xff 0xf1 0x3a
2023-02-03 11:00:37.499 DEBUG (SyncWorker_33) [pymodbus.factory] Factory Response[ReadInputRegistersResponse': 4]
2023-02-03 11:00:37.500 DEBUG (SyncWorker_33) [pymodbus.transaction] Adding transaction 736
2023-02-03 11:00:37.500 DEBUG (SyncWorker_33) [pymodbus.transaction] Getting transaction 736
2023-02-03 11:00:37.500 DEBUG (SyncWorker_33) [pymodbus.transaction] Changing transaction state from "PROCESSING REPLY" to "TRANSACTION_COMPLETE"
2023-02-03 11:00:37.705 DEBUG (SyncWorker_4) [pymodbus.transaction] Current transaction state - TRANSACTION_COMPLETE
2023-02-03 11:00:37.705 DEBUG (SyncWorker_4) [pymodbus.transaction] Running transaction 737
2023-02-03 11:00:37.705 DEBUG (SyncWorker_4) [pymodbus.transaction] SEND: 0x2 0xe1 0x0 0x0 0x0 0x6 0x1 0x4 0x1 0x2 0x0 0x2
2023-02-03 11:00:37.706 DEBUG (SyncWorker_4) [pymodbus.client.base] New Transaction state "SENDING"
2023-02-03 11:00:37.708 DEBUG (SyncWorker_4) [pymodbus.transaction] Changing transaction state from "SENDING" to "WAITING FOR REPLY"
2023-02-03 11:00:37.755 DEBUG (SyncWorker_4) [pymodbus.transaction] Changing transaction state from "WAITING FOR REPLY" to "PROCESSING REPLY"
2023-02-03 11:00:37.756 DEBUG (SyncWorker_4) [pymodbus.transaction] RECV: 0x2 0xe1 0x0 0x0 0x0 0x7 0x1 0x4 0x4 0x3f 0x29 0xab 0x3f
2023-02-03 11:00:37.756 DEBUG (SyncWorker_4) [pymodbus.framer.socket_framer] Processing: 0x2 0xe1 0x0 0x0 0x0 0x7 0x1 0x4 0x4 0x3f 0x29 0xab 0x3f
2023-02-03 11:00:37.756 DEBUG (SyncWorker_4) [pymodbus.factory] Factory Response[ReadInputRegistersResponse': 4]
2023-02-03 11:00:37.756 DEBUG (SyncWorker_4) [pymodbus.transaction] Adding transaction 737
2023-02-03 11:00:37.757 DEBUG (SyncWorker_4) [pymodbus.transaction] Getting transaction 737
2023-02-03 11:00:37.757 DEBUG (SyncWorker_4) [pymodbus.transaction] Changing transaction state from "PROCESSING REPLY" to "TRANSACTION_COMPLETE"
2023-02-03 11:00:37.960 DEBUG (SyncWorker_1) [pymodbus.transaction] Current transaction state - TRANSACTION_COMPLETE
2023-02-03 11:00:37.960 DEBUG (SyncWorker_1) [pymodbus.transaction] Running transaction 738
2023-02-03 11:00:37.961 DEBUG (SyncWorker_1) [pymodbus.transaction] SEND: 0x2 0xe2 0x0 0x0 0x0 0x6 0x1 0x4 0x1 0x4 0x0 0x2
2023-02-03 11:00:37.961 DEBUG (SyncWorker_1) [pymodbus.client.base] New Transaction state "SENDING"
2023-02-03 11:00:37.961 DEBUG (SyncWorker_1) [pymodbus.transaction] Changing transaction state from "SENDING" to "WAITING FOR REPLY"
2023-02-03 11:00:38.005 DEBUG (SyncWorker_1) [pymodbus.transaction] Changing transaction state from "WAITING FOR REPLY" to "PROCESSING REPLY"
2023-02-03 11:00:38.005 DEBUG (SyncWorker_1) [pymodbus.transaction] RECV: 0x2 0xe2 0x0 0x0 0x0 0x7 0x1 0x4 0x4 0x3f 0x24 0x9f 0x19
2023-02-03 11:00:38.005 DEBUG (SyncWorker_1) [pymodbus.framer.socket_framer] Processing: 0x2 0xe2 0x0 0x0 0x0 0x7 0x1 0x4 0x4 0x3f 0x24 0x9f 0x19
2023-02-03 11:00:38.006 DEBUG (SyncWorker_1) [pymodbus.factory] Factory Response[ReadInputRegistersResponse': 4]
2023-02-03 11:00:38.006 DEBUG (SyncWorker_1) [pymodbus.transaction] Adding transaction 738
2023-02-03 11:00:38.006 DEBUG (SyncWorker_1) [pymodbus.transaction] Getting transaction 738
2023-02-03 11:00:38.006 DEBUG (SyncWorker_1) [pymodbus.transaction] Changing transaction state from "PROCESSING REPLY" to "TRANSACTION_COMPLETE"
2023-02-03 11:00:38.210 DEBUG (SyncWorker_29) [pymodbus.transaction] Current transaction state - TRANSACTION_COMPLETE
2023-02-03 11:00:38.210 DEBUG (SyncWorker_29) [pymodbus.transaction] Running transaction 739
2023-02-03 11:00:38.211 DEBUG (SyncWorker_29) [pymodbus.transaction] SEND: 0x2 0xe3 0x0 0x0 0x0 0x6 0x1 0x4 0x1 0x6 0x0 0x2
2023-02-03 11:00:38.211 DEBUG (SyncWorker_29) [pymodbus.client.base] New Transaction state "SENDING"
2023-02-03 11:00:38.212 DEBUG (SyncWorker_29) [pymodbus.transaction] Changing transaction state from "SENDING" to "WAITING FOR REPLY"
2023-02-03 11:00:38.254 DEBUG (SyncWorker_29) [pymodbus.transaction] Changing transaction state from "WAITING FOR REPLY" to "PROCESSING REPLY"
2023-02-03 11:00:38.255 DEBUG (SyncWorker_29) [pymodbus.transaction] RECV: 0x2 0xe3 0x0 0x0 0x0 0x7 0x1 0x4 0x4 0x3f 0x28 0xb0 0x80
2023-02-03 11:00:38.255 DEBUG (SyncWorker_29) [pymodbus.framer.socket_framer] Processing: 0x2 0xe3 0x0 0x0 0x0 0x7 0x1 0x4 0x4 0x3f 0x28 0xb0 0x80
2023-02-03 11:00:38.255 DEBUG (SyncWorker_29) [pymodbus.factory] Factory Response[ReadInputRegistersResponse': 4]
2023-02-03 11:00:38.256 DEBUG (SyncWorker_29) [pymodbus.transaction] Adding transaction 739
2023-02-03 11:00:38.256 DEBUG (SyncWorker_29) [pymodbus.transaction] Getting transaction 739
2023-02-03 11:00:38.256 DEBUG (SyncWorker_29) [pymodbus.transaction] Changing transaction state from "PROCESSING REPLY" to "TRANSACTION_COMPLETE"
2023-02-03 11:00:38.459 DEBUG (SyncWorker_35) [pymodbus.transaction] Current transaction state - TRANSACTION_COMPLETE
2023-02-03 11:00:38.459 DEBUG (SyncWorker_35) [pymodbus.transaction] Running transaction 740
2023-02-03 11:00:38.459 DEBUG (SyncWorker_35) [pymodbus.transaction] SEND: 0x2 0xe4 0x0 0x0 0x0 0x6 0x1 0x4 0x1 0x8 0x0 0x2
2023-02-03 11:00:38.459 DEBUG (SyncWorker_35) [pymodbus.client.base] New Transaction state "SENDING"
2023-02-03 11:00:38.460 DEBUG (SyncWorker_35) [pymodbus.transaction] Changing transaction state from "SENDING" to "WAITING FOR REPLY"
2023-02-03 11:00:38.503 DEBUG (SyncWorker_35) [pymodbus.transaction] Changing transaction state from "WAITING FOR REPLY" to "PROCESSING REPLY"
2023-02-03 11:00:38.504 DEBUG (SyncWorker_35) [pymodbus.transaction] RECV: 0x2 0xe4 0x0 0x0 0x0 0x7 0x1 0x4 0x4 0x41 0x94 0x3c 0x42
2023-02-03 11:00:38.504 DEBUG (SyncWorker_35) [pymodbus.framer.socket_framer] Processing: 0x2 0xe4 0x0 0x0 0x0 0x7 0x1 0x4 0x4 0x41 0x94 0x3c 0x42
2023-02-03 11:00:38.504 DEBUG (SyncWorker_35) [pymodbus.factory] Factory Response[ReadInputRegistersResponse': 4]
2023-02-03 11:00:38.504 DEBUG (SyncWorker_35) [pymodbus.transaction] Adding transaction 740
2023-02-03 11:00:38.505 DEBUG (SyncWorker_35) [pymodbus.transaction] Getting transaction 740
2023-02-03 11:00:38.505 DEBUG (SyncWorker_35) [pymodbus.transaction] Changing transaction state from "PROCESSING REPLY" to "TRANSACTION_COMPLETE"
2023-02-03 11:00:38.711 DEBUG (SyncWorker_38) [pymodbus.transaction] Current transaction state - TRANSACTION_COMPLETE
2023-02-03 11:00:38.711 DEBUG (SyncWorker_38) [pymodbus.transaction] Running transaction 741
2023-02-03 11:00:38.711 DEBUG (SyncWorker_38) [pymodbus.transaction] SEND: 0x2 0xe5 0x0 0x0 0x0 0x6 0x1 0x4 0x1 0xa 0x0 0x2
2023-02-03 11:00:38.712 DEBUG (SyncWorker_38) [pymodbus.client.base] New Transaction state "SENDING"
2023-02-03 11:00:38.713 DEBUG (SyncWorker_38) [pymodbus.transaction] Changing transaction state from "SENDING" to "WAITING FOR REPLY"
2023-02-03 11:00:38.755 DEBUG (SyncWorker_38) [pymodbus.transaction] Changing transaction state from "WAITING FOR REPLY" to "PROCESSING REPLY"
2023-02-03 11:00:38.756 DEBUG (SyncWorker_38) [pymodbus.transaction] RECV: 0x2 0xe5 0x0 0x0 0x0 0x7 0x1 0x4 0x4 0x41 0x92 0x82 0x23
2023-02-03 11:00:38.756 DEBUG (SyncWorker_38) [pymodbus.framer.socket_framer] Processing: 0x2 0xe5 0x0 0x0 0x0 0x7 0x1 0x4 0x4 0x41 0x92 0x82 0x23
2023-02-03 11:00:38.756 DEBUG (SyncWorker_38) [pymodbus.factory] Factory Response[ReadInputRegistersResponse': 4]
2023-02-03 11:00:38.757 DEBUG (SyncWorker_38) [pymodbus.transaction] Adding transaction 741
2023-02-03 11:00:38.757 DEBUG (SyncWorker_38) [pymodbus.transaction] Getting transaction 741
2023-02-03 11:00:38.757 DEBUG (SyncWorker_38) [pymodbus.transaction] Changing transaction state from "PROCESSING REPLY" to "TRANSACTION_COMPLETE"
2023-02-03 11:00:38.967 DEBUG (SyncWorker_8) [pymodbus.transaction] Current transaction state - TRANSACTION_COMPLETE
2023-02-03 11:00:38.967 DEBUG (SyncWorker_8) [pymodbus.transaction] Running transaction 742
2023-02-03 11:00:38.968 DEBUG (SyncWorker_8) [pymodbus.transaction] SEND: 0x2 0xe6 0x0 0x0 0x0 0x6 0x1 0x4 0x1 0xc 0x0 0x2
2023-02-03 11:00:38.968 DEBUG (SyncWorker_8) [pymodbus.client.base] New Transaction state "SENDING"
2023-02-03 11:00:38.970 DEBUG (SyncWorker_8) [pymodbus.transaction] Changing transaction state from "SENDING" to "WAITING FOR REPLY"
2023-02-03 11:00:39.011 DEBUG (SyncWorker_8) [pymodbus.transaction] Changing transaction state from "WAITING FOR REPLY" to "PROCESSING REPLY"
2023-02-03 11:00:39.011 DEBUG (SyncWorker_8) [pymodbus.transaction] RECV: 0x2 0xe6 0x0 0x0 0x0 0x7 0x1 0x4 0x4 0x41 0x92 0xc9 0xe1
2023-02-03 11:00:39.011 DEBUG (SyncWorker_8) [pymodbus.framer.socket_framer] Processing: 0x2 0xe6 0x0 0x0 0x0 0x7 0x1 0x4 0x4 0x41 0x92 0xc9 0xe1
2023-02-03 11:00:39.011 DEBUG (SyncWorker_8) [pymodbus.factory] Factory Response[ReadInputRegistersResponse': 4]
2023-02-03 11:00:39.012 DEBUG (SyncWorker_8) [pymodbus.transaction] Adding transaction 742
2023-02-03 11:00:39.012 DEBUG (SyncWorker_8) [pymodbus.transaction] Getting transaction 742
2023-02-03 11:00:39.012 DEBUG (SyncWorker_8) [pymodbus.transaction] Changing transaction state from "PROCESSING REPLY" to "TRANSACTION_COMPLETE"
2023-02-03 11:00:39.215 DEBUG (SyncWorker_14) [pymodbus.transaction] Current transaction state - TRANSACTION_COMPLETE
2023-02-03 11:00:39.216 DEBUG (SyncWorker_14) [pymodbus.transaction] Running transaction 743
2023-02-03 11:00:39.216 DEBUG (SyncWorker_14) [pymodbus.transaction] SEND: 0x2 0xe7 0x0 0x0 0x0 0x6 0x1 0x4 0x1 0x4e 0x0 0x2
2023-02-03 11:00:39.216 DEBUG (SyncWorker_14) [pymodbus.client.base] New Transaction state "SENDING"
2023-02-03 11:00:39.217 DEBUG (SyncWorker_14) [pymodbus.transaction] Changing transaction state from "SENDING" to "WAITING FOR REPLY"
2023-02-03 11:00:39.262 DEBUG (SyncWorker_14) [pymodbus.transaction] Changing transaction state from "WAITING FOR REPLY" to "PROCESSING REPLY"
2023-02-03 11:00:39.262 DEBUG (SyncWorker_14) [pymodbus.transaction] RECV: 0x2 0xe7 0x0 0x0 0x0 0x7 0x1 0x4 0x4 0x0 0x0 0x0 0x0
2023-02-03 11:00:39.262 DEBUG (SyncWorker_14) [pymodbus.framer.socket_framer] Processing: 0x2 0xe7 0x0 0x0 0x0 0x7 0x1 0x4 0x4 0x0 0x0 0x0 0x0
2023-02-03 11:00:39.263 DEBUG (SyncWorker_14) [pymodbus.factory] Factory Response[ReadInputRegistersResponse': 4]
2023-02-03 11:00:39.263 DEBUG (SyncWorker_14) [pymodbus.transaction] Adding transaction 743
2023-02-03 11:00:39.263 DEBUG (SyncWorker_14) [pymodbus.transaction] Getting transaction 743
2023-02-03 11:00:39.263 DEBUG (SyncWorker_14) [pymodbus.transaction] Changing transaction state from "PROCESSING REPLY" to "TRANSACTION_COMPLETE"
2023-02-03 11:00:39.467 DEBUG (SyncWorker_3) [pymodbus.transaction] Current transaction state - TRANSACTION_COMPLETE
2023-02-03 11:00:39.467 DEBUG (SyncWorker_3) [pymodbus.transaction] Running transaction 744
2023-02-03 11:00:39.467 DEBUG (SyncWorker_3) [pymodbus.transaction] SEND: 0x2 0xe8 0x0 0x0 0x0 0x6 0x1 0x4 0x1 0x50 0x0 0x2
2023-02-03 11:00:39.468 DEBUG (SyncWorker_3) [pymodbus.client.base] New Transaction state "SENDING"
2023-02-03 11:00:39.468 DEBUG (SyncWorker_3) [pymodbus.transaction] Changing transaction state from "SENDING" to "WAITING FOR REPLY"
2023-02-03 11:00:39.515 DEBUG (SyncWorker_3) [pymodbus.transaction] Changing transaction state from "WAITING FOR REPLY" to "PROCESSING REPLY"
2023-02-03 11:00:39.516 DEBUG (SyncWorker_3) [pymodbus.transaction] RECV: 0x2 0xe8 0x0 0x0 0x0 0x7 0x1 0x4 0x4 0x0 0x0 0x0 0x0
2023-02-03 11:00:39.516 DEBUG (SyncWorker_3) [pymodbus.framer.socket_framer] Processing: 0x2 0xe8 0x0 0x0 0x0 0x7 0x1 0x4 0x4 0x0 0x0 0x0 0x0
2023-02-03 11:00:39.516 DEBUG (SyncWorker_3) [pymodbus.factory] Factory Response[ReadInputRegistersResponse': 4]
2023-02-03 11:00:39.517 DEBUG (SyncWorker_3) [pymodbus.transaction] Adding transaction 744
2023-02-03 11:00:39.517 DEBUG (SyncWorker_3) [pymodbus.transaction] Getting transaction 744
2023-02-03 11:00:39.517 DEBUG (SyncWorker_3) [pymodbus.transaction] Changing transaction state from "PROCESSING REPLY" to "TRANSACTION_COMPLETE"
2023-02-03 11:00:39.722 DEBUG (SyncWorker_13) [pymodbus.transaction] Current transaction state - TRANSACTION_COMPLETE
2023-02-03 11:00:39.723 DEBUG (SyncWorker_13) [pymodbus.transaction] Running transaction 745
2023-02-03 11:00:39.723 DEBUG (SyncWorker_13) [pymodbus.transaction] SEND: 0x2 0xe9 0x0 0x0 0x0 0x6 0x1 0x4 0x1 0x52 0x0 0x2
2023-02-03 11:00:39.723 DEBUG (SyncWorker_13) [pymodbus.client.base] New Transaction state "SENDING"
2023-02-03 11:00:39.724 DEBUG (SyncWorker_13) [pymodbus.transaction] Changing transaction state from "SENDING" to "WAITING FOR REPLY"
2023-02-03 11:00:39.766 DEBUG (SyncWorker_13) [pymodbus.transaction] Changing transaction state from "WAITING FOR REPLY" to "PROCESSING REPLY"
2023-02-03 11:00:39.767 DEBUG (SyncWorker_13) [pymodbus.transaction] RECV: 0x2 0xe9 0x0 0x0 0x0 0x7 0x1 0x4 0x4 0x0 0x0 0x0 0x0
2023-02-03 11:00:39.767 DEBUG (SyncWorker_13) [pymodbus.framer.socket_framer] Processing: 0x2 0xe9 0x0 0x0 0x0 0x7 0x1 0x4 0x4 0x0 0x0 0x0 0x0
2023-02-03 11:00:39.767 DEBUG (SyncWorker_13) [pymodbus.factory] Factory Response[ReadInputRegistersResponse': 4]
2023-02-03 11:00:39.768 DEBUG (SyncWorker_13) [pymodbus.transaction] Adding transaction 745
2023-02-03 11:00:39.768 DEBUG (SyncWorker_13) [pymodbus.transaction] Getting transaction 745
2023-02-03 11:00:39.768 DEBUG (SyncWorker_13) [pymodbus.transaction] Changing transaction state from "PROCESSING REPLY" to "TRANSACTION_COMPLETE"
2023-02-03 11:00:39.971 DEBUG (SyncWorker_5) [pymodbus.transaction] Current transaction state - TRANSACTION_COMPLETE
2023-02-03 11:00:39.971 DEBUG (SyncWorker_5) [pymodbus.transaction] Running transaction 746
2023-02-03 11:00:39.971 DEBUG (SyncWorker_5) [pymodbus.transaction] SEND: 0x2 0xea 0x0 0x0 0x0 0x6 0x1 0x4 0x1 0x54 0x0 0x2
2023-02-03 11:00:39.972 DEBUG (SyncWorker_5) [pymodbus.client.base] New Transaction state "SENDING"
2023-02-03 11:00:39.974 DEBUG (SyncWorker_5) [pymodbus.transaction] Changing transaction state from "SENDING" to "WAITING FOR REPLY"
2023-02-03 11:00:40.015 DEBUG (SyncWorker_5) [pymodbus.transaction] Changing transaction state from "WAITING FOR REPLY" to "PROCESSING REPLY"
2023-02-03 11:00:40.016 DEBUG (SyncWorker_5) [pymodbus.transaction] RECV: 0x2 0xea 0x0 0x0 0x0 0x7 0x1 0x4 0x4 0x0 0x0 0x0 0x0
2023-02-03 11:00:40.016 DEBUG (SyncWorker_5) [pymodbus.framer.socket_framer] Processing: 0x2 0xea 0x0 0x0 0x0 0x7 0x1 0x4 0x4 0x0 0x0 0x0 0x0
2023-02-03 11:00:40.016 DEBUG (SyncWorker_5) [pymodbus.factory] Factory Response[ReadInputRegistersResponse': 4]
2023-02-03 11:00:40.017 DEBUG (SyncWorker_5) [pymodbus.transaction] Adding transaction 746
2023-02-03 11:00:40.017 DEBUG (SyncWorker_5) [pymodbus.transaction] Getting transaction 746
2023-02-03 11:00:40.017 DEBUG (SyncWorker_5) [pymodbus.transaction] Changing transaction state from "PROCESSING REPLY" to "TRANSACTION_COMPLETE"
2023-02-03 11:00:40.222 DEBUG (SyncWorker_32) [pymodbus.transaction] Current transaction state - TRANSACTION_COMPLETE
2023-02-03 11:00:40.223 DEBUG (SyncWorker_32) [pymodbus.transaction] Running transaction 747
2023-02-03 11:00:40.223 DEBUG (SyncWorker_32) [pymodbus.transaction] SEND: 0x2 0xeb 0x0 0x0 0x0 0x6 0x1 0x4 0x1 0x58 0x0 0x2
2023-02-03 11:00:40.223 DEBUG (SyncWorker_32) [pymodbus.client.base] New Transaction state "SENDING"
2023-02-03 11:00:40.223 DEBUG (SyncWorker_32) [pymodbus.transaction] Changing transaction state from "SENDING" to "WAITING FOR REPLY"
2023-02-03 11:00:40.269 DEBUG (SyncWorker_32) [pymodbus.transaction] Changing transaction state from "WAITING FOR REPLY" to "PROCESSING REPLY"
2023-02-03 11:00:40.269 DEBUG (SyncWorker_32) [pymodbus.transaction] RECV: 0x2 0xeb 0x0 0x0 0x0 0x7 0x1 0x4 0x4 0x43 0xed 0x1a 0x5e
2023-02-03 11:00:40.269 DEBUG (SyncWorker_32) [pymodbus.framer.socket_framer] Processing: 0x2 0xeb 0x0 0x0 0x0 0x7 0x1 0x4 0x4 0x43 0xed 0x1a 0x5e
2023-02-03 11:00:40.270 DEBUG (SyncWorker_32) [pymodbus.factory] Factory Response[ReadInputRegistersResponse': 4]
2023-02-03 11:00:40.270 DEBUG (SyncWorker_32) [pymodbus.transaction] Adding transaction 747
2023-02-03 11:00:40.270 DEBUG (SyncWorker_32) [pymodbus.transaction] Getting transaction 747
2023-02-03 11:00:40.271 DEBUG (SyncWorker_32) [pymodbus.transaction] Changing transaction state from "PROCESSING REPLY" to "TRANSACTION_COMPLETE"
2023-02-03 11:00:40.473 DEBUG (SyncWorker_15) [pymodbus.transaction] Current transaction state - TRANSACTION_COMPLETE
2023-02-03 11:00:40.473 DEBUG (SyncWorker_15) [pymodbus.transaction] Running transaction 748
2023-02-03 11:00:40.473 DEBUG (SyncWorker_15) [pymodbus.transaction] SEND: 0x2 0xec 0x0 0x0 0x0 0x6 0x1 0x4 0x1 0x5a 0x0 0x2
2023-02-03 11:00:40.473 DEBUG (SyncWorker_15) [pymodbus.client.base] New Transaction state "SENDING"
2023-02-03 11:00:40.474 DEBUG (SyncWorker_15) [pymodbus.transaction] Changing transaction state from "SENDING" to "WAITING FOR REPLY"
2023-02-03 11:00:40.518 DEBUG (SyncWorker_15) [pymodbus.transaction] Changing transaction state from "WAITING FOR REPLY" to "PROCESSING REPLY"
2023-02-03 11:00:40.519 DEBUG (SyncWorker_15) [pymodbus.transaction] RECV: 0x2 0xec 0x0 0x0 0x0 0x7 0x1 0x4 0x4 0x45 0xb5 0x8f 0xb8
2023-02-03 11:00:40.519 DEBUG (SyncWorker_15) [pymodbus.framer.socket_framer] Processing: 0x2 0xec 0x0 0x0 0x0 0x7 0x1 0x4 0x4 0x45 0xb5 0x8f 0xb8
2023-02-03 11:00:40.519 DEBUG (SyncWorker_15) [pymodbus.factory] Factory Response[ReadInputRegistersResponse': 4]
2023-02-03 11:00:40.519 DEBUG (SyncWorker_15) [pymodbus.transaction] Adding transaction 748
2023-02-03 11:00:40.519 DEBUG (SyncWorker_15) [pymodbus.transaction] Getting transaction 748
2023-02-03 11:00:40.519 DEBUG (SyncWorker_15) [pymodbus.transaction] Changing transaction state from "PROCESSING REPLY" to "TRANSACTION_COMPLETE"
2023-02-03 11:00:40.721 DEBUG (SyncWorker_10) [pymodbus.transaction] Current transaction state - TRANSACTION_COMPLETE
2023-02-03 11:00:40.721 DEBUG (SyncWorker_10) [pymodbus.transaction] Running transaction 749
