################################################################################
#
# Debugging start-up with 170 modbus sensors.
# No scan_interval set for any sensor.
#
# Log settings:
#
#   logger:
#     default: warn
#     logs:
#       homeassistant.components.modbus: debug
#       pymodbus: debug
#

2023-02-03 10:56:18.354 DEBUG (SyncWorker_7) [pymodbus.client.tcp] Connection to Modbus server established. Socket ('192.168.16.140', 42334)
2023-02-03 10:56:18.354 INFO (SyncWorker_7) [homeassistant.components.modbus.modbus] modbus Waveshare Meterkast communication open
2023-02-03 10:57:15.009 DEBUG (SyncWorker_24) [pymodbus.transaction] Current transaction state - IDLE
2023-02-03 10:57:15.010 DEBUG (SyncWorker_24) [pymodbus.transaction] Running transaction 1
2023-02-03 10:57:15.010 DEBUG (SyncWorker_24) [pymodbus.transaction] SEND: 0x0 0x1 0x0 0x0 0x0 0x6 0x1 0x4 0x0 0x34 0x0 0x2
2023-02-03 10:57:15.010 DEBUG (SyncWorker_24) [pymodbus.client.base] New Transaction state "SENDING"
2023-02-03 10:57:15.011 DEBUG (SyncWorker_24) [pymodbus.transaction] Changing transaction state from "SENDING" to "WAITING FOR REPLY"
2023-02-03 10:57:15.082 DEBUG (SyncWorker_24) [pymodbus.transaction] Changing transaction state from "WAITING FOR REPLY" to "PROCESSING REPLY"
2023-02-03 10:57:15.083 DEBUG (SyncWorker_24) [pymodbus.transaction] RECV: 0x0 0x1 0x0 0x0 0x0 0x7 0x1 0x4 0x4 0x44 0xf 0x4e 0xe5
2023-02-03 10:57:15.083 DEBUG (SyncWorker_24) [pymodbus.framer.socket_framer] Processing: 0x0 0x1 0x0 0x0 0x0 0x7 0x1 0x4 0x4 0x44 0xf 0x4e 0xe5
2023-02-03 10:57:15.083 DEBUG (SyncWorker_24) [pymodbus.factory] Factory Response[ReadInputRegistersResponse': 4]
2023-02-03 10:57:15.083 DEBUG (SyncWorker_24) [pymodbus.transaction] Adding transaction 1
2023-02-03 10:57:15.084 DEBUG (SyncWorker_24) [pymodbus.transaction] Getting transaction 1
2023-02-03 10:57:15.084 DEBUG (SyncWorker_24) [pymodbus.transaction] Changing transaction state from "PROCESSING REPLY" to "TRANSACTION_COMPLETE"
2023-02-03 10:57:16.274 DEBUG (SyncWorker_23) [pymodbus.transaction] Current transaction state - TRANSACTION_COMPLETE
2023-02-03 10:57:16.274 DEBUG (SyncWorker_23) [pymodbus.transaction] Running transaction 2
2023-02-03 10:57:16.274 DEBUG (SyncWorker_23) [pymodbus.transaction] SEND: 0x0 0x2 0x0 0x0 0x0 0x6 0x1 0x4 0x0 0x48 0x0 0x2
2023-02-03 10:57:16.275 DEBUG (SyncWorker_23) [pymodbus.client.base] New Transaction state "SENDING"
2023-02-03 10:57:16.276 DEBUG (SyncWorker_23) [pymodbus.transaction] Changing transaction state from "SENDING" to "WAITING FOR REPLY"
2023-02-03 10:57:16.343 DEBUG (SyncWorker_23) [pymodbus.transaction] Changing transaction state from "WAITING FOR REPLY" to "PROCESSING REPLY"
2023-02-03 10:57:16.344 DEBUG (SyncWorker_23) [pymodbus.transaction] RECV: 0x0 0x2 0x0 0x0 0x0 0x7 0x1 0x4 0x4 0x46 0x88 0x5 0xd4
2023-02-03 10:57:16.344 DEBUG (SyncWorker_23) [pymodbus.framer.socket_framer] Processing: 0x0 0x2 0x0 0x0 0x0 0x7 0x1 0x4 0x4 0x46 0x88 0x5 0xd4
2023-02-03 10:57:16.344 DEBUG (SyncWorker_23) [pymodbus.factory] Factory Response[ReadInputRegistersResponse': 4]
2023-02-03 10:57:16.344 DEBUG (SyncWorker_23) [pymodbus.transaction] Adding transaction 2
2023-02-03 10:57:16.345 DEBUG (SyncWorker_23) [pymodbus.transaction] Getting transaction 2
2023-02-03 10:57:16.345 DEBUG (SyncWorker_23) [pymodbus.transaction] Changing transaction state from "PROCESSING REPLY" to "TRANSACTION_COMPLETE"
2023-02-03 10:57:16.562 DEBUG (SyncWorker_8) [pymodbus.transaction] Current transaction state - TRANSACTION_COMPLETE
2023-02-03 10:57:16.562 DEBUG (SyncWorker_8) [pymodbus.transaction] Running transaction 3
2023-02-03 10:57:16.562 DEBUG (SyncWorker_8) [pymodbus.transaction] SEND: 0x0 0x3 0x0 0x0 0x0 0x6 0x1 0x4 0x0 0x4a 0x0 0x2
2023-02-03 10:57:16.562 DEBUG (SyncWorker_8) [pymodbus.client.base] New Transaction state "SENDING"
2023-02-03 10:57:16.563 DEBUG (SyncWorker_8) [pymodbus.transaction] Changing transaction state from "SENDING" to "WAITING FOR REPLY"
2023-02-03 10:57:16.604 DEBUG (SyncWorker_8) [pymodbus.transaction] Changing transaction state from "WAITING FOR REPLY" to "PROCESSING REPLY"
2023-02-03 10:57:16.605 DEBUG (SyncWorker_8) [pymodbus.transaction] RECV: 0x0 0x3 0x0 0x0 0x0 0x7 0x1 0x4 0x4 0x40 0xa7 0x43 0x96
2023-02-03 10:57:16.605 DEBUG (SyncWorker_8) [pymodbus.framer.socket_framer] Processing: 0x0 0x3 0x0 0x0 0x0 0x7 0x1 0x4 0x4 0x40 0xa7 0x43 0x96
2023-02-03 10:57:16.605 DEBUG (SyncWorker_8) [pymodbus.factory] Factory Response[ReadInputRegistersResponse': 4]
2023-02-03 10:57:16.605 DEBUG (SyncWorker_8) [pymodbus.transaction] Adding transaction 3
2023-02-03 10:57:16.605 DEBUG (SyncWorker_8) [pymodbus.transaction] Getting transaction 3
2023-02-03 10:57:16.605 DEBUG (SyncWorker_8) [pymodbus.transaction] Changing transaction state from "PROCESSING REPLY" to "TRANSACTION_COMPLETE"
2023-02-03 10:57:16.852 DEBUG (SyncWorker_7) [pymodbus.transaction] Current transaction state - TRANSACTION_COMPLETE
2023-02-03 10:57:16.853 DEBUG (SyncWorker_7) [pymodbus.transaction] Running transaction 4
2023-02-03 10:57:16.853 DEBUG (SyncWorker_7) [pymodbus.transaction] SEND: 0x0 0x4 0x0 0x0 0x0 0x6 0x1 0x4 0x0 0x54 0x0 0x2
2023-02-03 10:57:16.853 DEBUG (SyncWorker_7) [pymodbus.client.base] New Transaction state "SENDING"
2023-02-03 10:57:16.853 DEBUG (SyncWorker_7) [pymodbus.transaction] Changing transaction state from "SENDING" to "WAITING FOR REPLY"
2023-02-03 10:57:16.893 DEBUG (SyncWorker_7) [pymodbus.transaction] Changing transaction state from "WAITING FOR REPLY" to "PROCESSING REPLY"
2023-02-03 10:57:16.893 DEBUG (SyncWorker_7) [pymodbus.transaction] RECV: 0x0 0x4 0x0 0x0 0x0 0x7 0x1 0x4 0x4 0x43 0xd9 0x13 0x61
2023-02-03 10:57:16.894 DEBUG (SyncWorker_7) [pymodbus.framer.socket_framer] Processing: 0x0 0x4 0x0 0x0 0x0 0x7 0x1 0x4 0x4 0x43 0xd9 0x13 0x61
2023-02-03 10:57:16.894 DEBUG (SyncWorker_7) [pymodbus.factory] Factory Response[ReadInputRegistersResponse': 4]
2023-02-03 10:57:16.894 DEBUG (SyncWorker_7) [pymodbus.transaction] Adding transaction 4
2023-02-03 10:57:16.894 DEBUG (SyncWorker_7) [pymodbus.transaction] Getting transaction 4
2023-02-03 10:57:16.894 DEBUG (SyncWorker_7) [pymodbus.transaction] Changing transaction state from "PROCESSING REPLY" to "TRANSACTION_COMPLETE"
2023-02-03 10:57:18.528 DEBUG (SyncWorker_14) [pymodbus.transaction] Current transaction state - TRANSACTION_COMPLETE
2023-02-03 10:57:18.529 DEBUG (SyncWorker_14) [pymodbus.transaction] Running transaction 5
2023-02-03 10:57:18.529 DEBUG (SyncWorker_14) [pymodbus.transaction] SEND: 0x0 0x5 0x0 0x0 0x0 0x6 0x1 0x4 0x1 0x56 0x0 0x2
2023-02-03 10:57:18.529 DEBUG (SyncWorker_14) [pymodbus.client.base] New Transaction state "SENDING"
2023-02-03 10:57:18.530 DEBUG (SyncWorker_14) [pymodbus.transaction] Changing transaction state from "SENDING" to "WAITING FOR REPLY"
2023-02-03 10:57:18.579 DEBUG (SyncWorker_14) [pymodbus.transaction] Changing transaction state from "WAITING FOR REPLY" to "PROCESSING REPLY"
2023-02-03 10:57:18.579 DEBUG (SyncWorker_14) [pymodbus.transaction] RECV: 0x0 0x5 0x0 0x0 0x0 0x7 0x1 0x4 0x4 0x46 0x88 0x10 0x48
2023-02-03 10:57:18.579 DEBUG (SyncWorker_14) [pymodbus.framer.socket_framer] Processing: 0x0 0x5 0x0 0x0 0x0 0x7 0x1 0x4 0x4 0x46 0x88 0x10 0x48
2023-02-03 10:57:18.579 DEBUG (SyncWorker_14) [pymodbus.factory] Factory Response[ReadInputRegistersResponse': 4]
2023-02-03 10:57:18.580 DEBUG (SyncWorker_14) [pymodbus.transaction] Adding transaction 5
2023-02-03 10:57:18.580 DEBUG (SyncWorker_14) [pymodbus.transaction] Getting transaction 5
2023-02-03 10:57:18.580 DEBUG (SyncWorker_14) [pymodbus.transaction] Changing transaction state from "PROCESSING REPLY" to "TRANSACTION_COMPLETE"
2023-02-03 10:57:18.789 DEBUG (SyncWorker_17) [pymodbus.transaction] Current transaction state - TRANSACTION_COMPLETE
2023-02-03 10:57:18.789 DEBUG (SyncWorker_17) [pymodbus.transaction] Running transaction 6
2023-02-03 10:57:18.790 DEBUG (SyncWorker_17) [pymodbus.transaction] SEND: 0x0 0x6 0x0 0x0 0x0 0x6 0x1 0x4 0x0 0x0 0x0 0x2
2023-02-03 10:57:18.790 DEBUG (SyncWorker_17) [pymodbus.client.base] New Transaction state "SENDING"
2023-02-03 10:57:18.790 DEBUG (SyncWorker_17) [pymodbus.transaction] Changing transaction state from "SENDING" to "WAITING FOR REPLY"
2023-02-03 10:57:18.829 DEBUG (SyncWorker_17) [pymodbus.transaction] Changing transaction state from "WAITING FOR REPLY" to "PROCESSING REPLY"
2023-02-03 10:57:18.829 DEBUG (SyncWorker_17) [pymodbus.transaction] RECV: 0x0 0x6 0x0 0x0 0x0 0x7 0x1 0x4 0x4 0x43 0x64 0x55 0x95
2023-02-03 10:57:18.829 DEBUG (SyncWorker_17) [pymodbus.framer.socket_framer] Processing: 0x0 0x6 0x0 0x0 0x0 0x7 0x1 0x4 0x4 0x43 0x64 0x55 0x95
2023-02-03 10:57:18.829 DEBUG (SyncWorker_17) [pymodbus.factory] Factory Response[ReadInputRegistersResponse': 4]
2023-02-03 10:57:18.829 DEBUG (SyncWorker_17) [pymodbus.transaction] Adding transaction 6
2023-02-03 10:57:18.829 DEBUG (SyncWorker_17) [pymodbus.transaction] Getting transaction 6
2023-02-03 10:57:18.829 DEBUG (SyncWorker_17) [pymodbus.transaction] Changing transaction state from "PROCESSING REPLY" to "TRANSACTION_COMPLETE"
2023-02-03 10:57:19.034 DEBUG (SyncWorker_18) [pymodbus.transaction] Current transaction state - TRANSACTION_COMPLETE
2023-02-03 10:57:19.034 DEBUG (SyncWorker_18) [pymodbus.transaction] Running transaction 7
2023-02-03 10:57:19.034 DEBUG (SyncWorker_18) [pymodbus.transaction] SEND: 0x0 0x7 0x0 0x0 0x0 0x6 0x1 0x4 0x0 0x2 0x0 0x2
2023-02-03 10:57:19.034 DEBUG (SyncWorker_18) [pymodbus.client.base] New Transaction state "SENDING"
2023-02-03 10:57:19.035 DEBUG (SyncWorker_18) [pymodbus.transaction] Changing transaction state from "SENDING" to "WAITING FOR REPLY"
2023-02-03 10:57:19.074 DEBUG (SyncWorker_18) [pymodbus.transaction] Changing transaction state from "WAITING FOR REPLY" to "PROCESSING REPLY"
2023-02-03 10:57:19.074 DEBUG (SyncWorker_18) [pymodbus.transaction] RECV: 0x0 0x7 0x0 0x0 0x0 0x7 0x1 0x4 0x4 0x43 0x65 0xff 0xab
2023-02-03 10:57:19.074 DEBUG (SyncWorker_18) [pymodbus.framer.socket_framer] Processing: 0x0 0x7 0x0 0x0 0x0 0x7 0x1 0x4 0x4 0x43 0x65 0xff 0xab
2023-02-03 10:57:19.074 DEBUG (SyncWorker_18) [pymodbus.factory] Factory Response[ReadInputRegistersResponse': 4]
2023-02-03 10:57:19.075 DEBUG (SyncWorker_18) [pymodbus.transaction] Adding transaction 7
2023-02-03 10:57:19.075 DEBUG (SyncWorker_18) [pymodbus.transaction] Getting transaction 7
2023-02-03 10:57:19.075 DEBUG (SyncWorker_18) [pymodbus.transaction] Changing transaction state from "PROCESSING REPLY" to "TRANSACTION_COMPLETE"
2023-02-03 10:57:19.278 DEBUG (SyncWorker_20) [pymodbus.transaction] Current transaction state - TRANSACTION_COMPLETE
2023-02-03 10:57:19.279 DEBUG (SyncWorker_20) [pymodbus.transaction] Running transaction 8
2023-02-03 10:57:19.279 DEBUG (SyncWorker_20) [pymodbus.transaction] SEND: 0x0 0x8 0x0 0x0 0x0 0x6 0x1 0x4 0x0 0x4 0x0 0x2
2023-02-03 10:57:19.279 DEBUG (SyncWorker_20) [pymodbus.client.base] New Transaction state "SENDING"
2023-02-03 10:57:19.279 DEBUG (SyncWorker_20) [pymodbus.transaction] Changing transaction state from "SENDING" to "WAITING FOR REPLY"
2023-02-03 10:57:19.336 DEBUG (SyncWorker_20) [pymodbus.transaction] Changing transaction state from "WAITING FOR REPLY" to "PROCESSING REPLY"
2023-02-03 10:57:19.336 DEBUG (SyncWorker_20) [pymodbus.transaction] RECV: 0x0 0x8 0x0 0x0 0x0 0x7 0x1 0x4 0x4 0x43 0x5f 0x61 0xaa
2023-02-03 10:57:19.336 DEBUG (SyncWorker_20) [pymodbus.framer.socket_framer] Processing: 0x0 0x8 0x0 0x0 0x0 0x7 0x1 0x4 0x4 0x43 0x5f 0x61 0xaa
2023-02-03 10:57:19.336 DEBUG (SyncWorker_20) [pymodbus.factory] Factory Response[ReadInputRegistersResponse': 4]
2023-02-03 10:57:19.337 DEBUG (SyncWorker_20) [pymodbus.transaction] Adding transaction 8
2023-02-03 10:57:19.337 DEBUG (SyncWorker_20) [pymodbus.transaction] Getting transaction 8
2023-02-03 10:57:19.337 DEBUG (SyncWorker_20) [pymodbus.transaction] Changing transaction state from "PROCESSING REPLY" to "TRANSACTION_COMPLETE"
2023-02-03 10:57:19.541 DEBUG (SyncWorker_4) [pymodbus.transaction] Current transaction state - TRANSACTION_COMPLETE
2023-02-03 10:57:19.542 DEBUG (SyncWorker_4) [pymodbus.transaction] Running transaction 9
2023-02-03 10:57:19.542 DEBUG (SyncWorker_4) [pymodbus.transaction] SEND: 0x0 0x9 0x0 0x0 0x0 0x6 0x1 0x4 0x0 0x6 0x0 0x2
2023-02-03 10:57:19.542 DEBUG (SyncWorker_4) [pymodbus.client.base] New Transaction state "SENDING"
2023-02-03 10:57:19.543 DEBUG (SyncWorker_4) [pymodbus.transaction] Changing transaction state from "SENDING" to "WAITING FOR REPLY"
2023-02-03 10:57:19.585 DEBUG (SyncWorker_4) [pymodbus.transaction] Changing transaction state from "WAITING FOR REPLY" to "PROCESSING REPLY"
2023-02-03 10:57:19.586 DEBUG (SyncWorker_4) [pymodbus.transaction] RECV: 0x0 0x9 0x0 0x0 0x0 0x7 0x1 0x4 0x4 0x3f 0x5b 0x97 0xe3
2023-02-03 10:57:19.586 DEBUG (SyncWorker_4) [pymodbus.framer.socket_framer] Processing: 0x0 0x9 0x0 0x0 0x0 0x7 0x1 0x4 0x4 0x3f 0x5b 0x97 0xe3
2023-02-03 10:57:19.586 DEBUG (SyncWorker_4) [pymodbus.factory] Factory Response[ReadInputRegistersResponse': 4]
2023-02-03 10:57:19.587 DEBUG (SyncWorker_4) [pymodbus.transaction] Adding transaction 9
2023-02-03 10:57:19.587 DEBUG (SyncWorker_4) [pymodbus.transaction] Getting transaction 9
2023-02-03 10:57:19.587 DEBUG (SyncWorker_4) [pymodbus.transaction] Changing transaction state from "PROCESSING REPLY" to "TRANSACTION_COMPLETE"
2023-02-03 10:57:19.794 DEBUG (SyncWorker_19) [pymodbus.transaction] Current transaction state - TRANSACTION_COMPLETE
2023-02-03 10:57:19.795 DEBUG (SyncWorker_19) [pymodbus.transaction] Running transaction 10
2023-02-03 10:57:19.795 DEBUG (SyncWorker_19) [pymodbus.transaction] SEND: 0x0 0xa 0x0 0x0 0x0 0x6 0x1 0x4 0x0 0x8 0x0 0x2
2023-02-03 10:57:19.795 DEBUG (SyncWorker_19) [pymodbus.client.base] New Transaction state "SENDING"
2023-02-03 10:57:19.796 DEBUG (SyncWorker_19) [pymodbus.transaction] Changing transaction state from "SENDING" to "WAITING FOR REPLY"
2023-02-03 10:57:19.839 DEBUG (SyncWorker_19) [pymodbus.transaction] Changing transaction state from "WAITING FOR REPLY" to "PROCESSING REPLY"
2023-02-03 10:57:19.839 DEBUG (SyncWorker_19) [pymodbus.transaction] RECV: 0x0 0xa 0x0 0x0 0x0 0x7 0x1 0x4 0x4 0x3f 0x52 0x62 0xa
2023-02-03 10:57:19.839 DEBUG (SyncWorker_19) [pymodbus.framer.socket_framer] Processing: 0x0 0xa 0x0 0x0 0x0 0x7 0x1 0x4 0x4 0x3f 0x52 0x62 0xa
2023-02-03 10:57:19.840 DEBUG (SyncWorker_19) [pymodbus.factory] Factory Response[ReadInputRegistersResponse': 4]
2023-02-03 10:57:19.840 DEBUG (SyncWorker_19) [pymodbus.transaction] Adding transaction 10
2023-02-03 10:57:19.840 DEBUG (SyncWorker_19) [pymodbus.transaction] Getting transaction 10
2023-02-03 10:57:19.840 DEBUG (SyncWorker_19) [pymodbus.transaction] Changing transaction state from "PROCESSING REPLY" to "TRANSACTION_COMPLETE"
2023-02-03 10:57:20.045 DEBUG (SyncWorker_16) [pymodbus.transaction] Current transaction state - TRANSACTION_COMPLETE
2023-02-03 10:57:20.045 DEBUG (SyncWorker_16) [pymodbus.transaction] Running transaction 11
2023-02-03 10:57:20.045 DEBUG (SyncWorker_16) [pymodbus.transaction] SEND: 0x0 0xb 0x0 0x0 0x0 0x6 0x1 0x4 0x0 0xa 0x0 0x2
2023-02-03 10:57:20.046 DEBUG (SyncWorker_16) [pymodbus.client.base] New Transaction state "SENDING"
2023-02-03 10:57:20.046 DEBUG (SyncWorker_16) [pymodbus.transaction] Changing transaction state from "SENDING" to "WAITING FOR REPLY"
2023-02-03 10:57:20.089 DEBUG (SyncWorker_16) [pymodbus.transaction] Changing transaction state from "WAITING FOR REPLY" to "PROCESSING REPLY"
2023-02-03 10:57:20.089 DEBUG (SyncWorker_16) [pymodbus.transaction] RECV: 0x0 0xb 0x0 0x0 0x0 0x7 0x1 0x4 0x4 0x3f 0x57 0x92 0x72
2023-02-03 10:57:20.089 DEBUG (SyncWorker_16) [pymodbus.framer.socket_framer] Processing: 0x0 0xb 0x0 0x0 0x0 0x7 0x1 0x4 0x4 0x3f 0x57 0x92 0x72
2023-02-03 10:57:20.090 DEBUG (SyncWorker_16) [pymodbus.factory] Factory Response[ReadInputRegistersResponse': 4]
2023-02-03 10:57:20.090 DEBUG (SyncWorker_16) [pymodbus.transaction] Adding transaction 11
2023-02-03 10:57:20.090 DEBUG (SyncWorker_16) [pymodbus.transaction] Getting transaction 11
2023-02-03 10:57:20.090 DEBUG (SyncWorker_16) [pymodbus.transaction] Changing transaction state from "PROCESSING REPLY" to "TRANSACTION_COMPLETE"
2023-02-03 10:57:20.294 DEBUG (SyncWorker_15) [pymodbus.transaction] Current transaction state - TRANSACTION_COMPLETE
2023-02-03 10:57:20.295 DEBUG (SyncWorker_15) [pymodbus.transaction] Running transaction 12
2023-02-03 10:57:20.295 DEBUG (SyncWorker_15) [pymodbus.transaction] SEND: 0x0 0xc 0x0 0x0 0x0 0x6 0x1 0x4 0x0 0xc 0x0 0x2
2023-02-03 10:57:20.295 DEBUG (SyncWorker_15) [pymodbus.client.base] New Transaction state "SENDING"
2023-02-03 10:57:20.296 DEBUG (SyncWorker_15) [pymodbus.transaction] Changing transaction state from "SENDING" to "WAITING FOR REPLY"
2023-02-03 10:57:20.336 DEBUG (SyncWorker_15) [pymodbus.transaction] Changing transaction state from "WAITING FOR REPLY" to "PROCESSING REPLY"
2023-02-03 10:57:20.336 DEBUG (SyncWorker_15) [pymodbus.transaction] RECV: 0x0 0xc 0x0 0x0 0x0 0x7 0x1 0x4 0x4 0x43 0x43 0xe0 0xeb
2023-02-03 10:57:20.336 DEBUG (SyncWorker_15) [pymodbus.framer.socket_framer] Processing: 0x0 0xc 0x0 0x0 0x0 0x7 0x1 0x4 0x4 0x43 0x43 0xe0 0xeb
2023-02-03 10:57:20.337 DEBUG (SyncWorker_15) [pymodbus.factory] Factory Response[ReadInputRegistersResponse': 4]
2023-02-03 10:57:20.337 DEBUG (SyncWorker_15) [pymodbus.transaction] Adding transaction 12
2023-02-03 10:57:20.337 DEBUG (SyncWorker_15) [pymodbus.transaction] Getting transaction 12
2023-02-03 10:57:20.337 DEBUG (SyncWorker_15) [pymodbus.transaction] Changing transaction state from "PROCESSING REPLY" to "TRANSACTION_COMPLETE"
2023-02-03 10:57:20.543 DEBUG (SyncWorker_9) [pymodbus.transaction] Current transaction state - TRANSACTION_COMPLETE
2023-02-03 10:57:20.543 DEBUG (SyncWorker_9) [pymodbus.transaction] Running transaction 13
2023-02-03 10:57:20.543 DEBUG (SyncWorker_9) [pymodbus.transaction] SEND: 0x0 0xd 0x0 0x0 0x0 0x6 0x1 0x4 0x0 0xe 0x0 0x2
2023-02-03 10:57:20.544 DEBUG (SyncWorker_9) [pymodbus.client.base] New Transaction state "SENDING"
2023-02-03 10:57:20.544 DEBUG (SyncWorker_9) [pymodbus.transaction] Changing transaction state from "SENDING" to "WAITING FOR REPLY"
2023-02-03 10:57:20.583 DEBUG (SyncWorker_9) [pymodbus.transaction] Changing transaction state from "WAITING FOR REPLY" to "PROCESSING REPLY"
2023-02-03 10:57:20.583 DEBUG (SyncWorker_9) [pymodbus.transaction] RECV: 0x0 0xd 0x0 0x0 0x0 0x7 0x1 0x4 0x4 0x43 0x3d 0xb2 0x8a
2023-02-03 10:57:20.583 DEBUG (SyncWorker_9) [pymodbus.framer.socket_framer] Processing: 0x0 0xd 0x0 0x0 0x0 0x7 0x1 0x4 0x4 0x43 0x3d 0xb2 0x8a
2023-02-03 10:57:20.584 DEBUG (SyncWorker_9) [pymodbus.factory] Factory Response[ReadInputRegistersResponse': 4]
2023-02-03 10:57:20.584 DEBUG (SyncWorker_9) [pymodbus.transaction] Adding transaction 13
2023-02-03 10:57:20.584 DEBUG (SyncWorker_9) [pymodbus.transaction] Getting transaction 13
2023-02-03 10:57:20.585 DEBUG (SyncWorker_9) [pymodbus.transaction] Changing transaction state from "PROCESSING REPLY" to "TRANSACTION_COMPLETE"
2023-02-03 10:57:20.791 DEBUG (SyncWorker_12) [pymodbus.transaction] Current transaction state - TRANSACTION_COMPLETE
2023-02-03 10:57:20.791 DEBUG (SyncWorker_12) [pymodbus.transaction] Running transaction 14
2023-02-03 10:57:20.792 DEBUG (SyncWorker_12) [pymodbus.transaction] SEND: 0x0 0xe 0x0 0x0 0x0 0x6 0x1 0x4 0x0 0x10 0x0 0x2
2023-02-03 10:57:20.792 DEBUG (SyncWorker_12) [pymodbus.client.base] New Transaction state "SENDING"
2023-02-03 10:57:20.793 DEBUG (SyncWorker_12) [pymodbus.transaction] Changing transaction state from "SENDING" to "WAITING FOR REPLY"
2023-02-03 10:57:20.833 DEBUG (SyncWorker_12) [pymodbus.transaction] Changing transaction state from "WAITING FOR REPLY" to "PROCESSING REPLY"
2023-02-03 10:57:20.833 DEBUG (SyncWorker_12) [pymodbus.transaction] RECV: 0x0 0xe 0x0 0x0 0x0 0x7 0x1 0x4 0x4 0x43 0x3c 0x13 0x4b
2023-02-03 10:57:20.834 DEBUG (SyncWorker_12) [pymodbus.framer.socket_framer] Processing: 0x0 0xe 0x0 0x0 0x0 0x7 0x1 0x4 0x4 0x43 0x3c 0x13 0x4b
2023-02-03 10:57:20.834 DEBUG (SyncWorker_12) [pymodbus.factory] Factory Response[ReadInputRegistersResponse': 4]
2023-02-03 10:57:20.835 DEBUG (SyncWorker_12) [pymodbus.transaction] Adding transaction 14
2023-02-03 10:57:20.835 DEBUG (SyncWorker_12) [pymodbus.transaction] Getting transaction 14
2023-02-03 10:57:20.835 DEBUG (SyncWorker_12) [pymodbus.transaction] Changing transaction state from "PROCESSING REPLY" to "TRANSACTION_COMPLETE"
2023-02-03 10:57:21.039 DEBUG (SyncWorker_7) [pymodbus.transaction] Current transaction state - TRANSACTION_COMPLETE
2023-02-03 10:57:21.039 DEBUG (SyncWorker_7) [pymodbus.transaction] Running transaction 15
2023-02-03 10:57:21.039 DEBUG (SyncWorker_7) [pymodbus.transaction] SEND: 0x0 0xf 0x0 0x0 0x0 0x6 0x1 0x4 0x0 0x12 0x0 0x2
2023-02-03 10:57:21.039 DEBUG (SyncWorker_7) [pymodbus.client.base] New Transaction state "SENDING"
2023-02-03 10:57:21.040 DEBUG (SyncWorker_7) [pymodbus.transaction] Changing transaction state from "SENDING" to "WAITING FOR REPLY"
2023-02-03 10:57:21.080 DEBUG (SyncWorker_7) [pymodbus.transaction] Changing transaction state from "WAITING FOR REPLY" to "PROCESSING REPLY"
2023-02-03 10:57:21.080 DEBUG (SyncWorker_7) [pymodbus.transaction] RECV: 0x0 0xf 0x0 0x0 0x0 0x7 0x1 0x4 0x4 0x43 0x43 0xcb 0xa8
2023-02-03 10:57:21.081 DEBUG (SyncWorker_7) [pymodbus.framer.socket_framer] Processing: 0x0 0xf 0x0 0x0 0x0 0x7 0x1 0x4 0x4 0x43 0x43 0xcb 0xa8
2023-02-03 10:57:21.081 DEBUG (SyncWorker_7) [pymodbus.factory] Factory Response[ReadInputRegistersResponse': 4]
2023-02-03 10:57:21.081 DEBUG (SyncWorker_7) [pymodbus.transaction] Adding transaction 15
2023-02-03 10:57:21.081 DEBUG (SyncWorker_7) [pymodbus.transaction] Getting transaction 15
2023-02-03 10:57:21.081 DEBUG (SyncWorker_7) [pymodbus.transaction] Changing transaction state from "PROCESSING REPLY" to "TRANSACTION_COMPLETE"
2023-02-03 10:57:21.283 DEBUG (SyncWorker_11) [pymodbus.transaction] Current transaction state - TRANSACTION_COMPLETE
2023-02-03 10:57:21.284 DEBUG (SyncWorker_11) [pymodbus.transaction] Running transaction 16
2023-02-03 10:57:21.284 DEBUG (SyncWorker_11) [pymodbus.transaction] SEND: 0x0 0x10 0x0 0x0 0x0 0x6 0x1 0x4 0x0 0x14 0x0 0x2
2023-02-03 10:57:21.284 DEBUG (SyncWorker_11) [pymodbus.client.base] New Transaction state "SENDING"
2023-02-03 10:57:21.285 DEBUG (SyncWorker_11) [pymodbus.transaction] Changing transaction state from "SENDING" to "WAITING FOR REPLY"
2023-02-03 10:57:21.335 DEBUG (SyncWorker_11) [pymodbus.transaction] Changing transaction state from "WAITING FOR REPLY" to "PROCESSING REPLY"
2023-02-03 10:57:21.335 DEBUG (SyncWorker_11) [pymodbus.transaction] RECV: 0x0 0x10 0x0 0x0 0x0 0x7 0x1 0x4 0x4 0x43 0x3d 0x27 0xfc
2023-02-03 10:57:21.335 DEBUG (SyncWorker_11) [pymodbus.framer.socket_framer] Processing: 0x0 0x10 0x0 0x0 0x0 0x7 0x1 0x4 0x4 0x43 0x3d 0x27 0xfc
2023-02-03 10:57:21.335 DEBUG (SyncWorker_11) [pymodbus.factory] Factory Response[ReadInputRegistersResponse': 4]
2023-02-03 10:57:21.336 DEBUG (SyncWorker_11) [pymodbus.transaction] Adding transaction 16
2023-02-03 10:57:21.336 DEBUG (SyncWorker_11) [pymodbus.transaction] Getting transaction 16
2023-02-03 10:57:21.336 DEBUG (SyncWorker_11) [pymodbus.transaction] Changing transaction state from "PROCESSING REPLY" to "TRANSACTION_COMPLETE"
2023-02-03 10:57:21.539 DEBUG (SyncWorker_21) [pymodbus.transaction] Current transaction state - TRANSACTION_COMPLETE
2023-02-03 10:57:21.539 DEBUG (SyncWorker_21) [pymodbus.transaction] Running transaction 17
2023-02-03 10:57:21.539 DEBUG (SyncWorker_21) [pymodbus.transaction] SEND: 0x0 0x11 0x0 0x0 0x0 0x6 0x1 0x4 0x0 0x16 0x0 0x2
2023-02-03 10:57:21.539 DEBUG (SyncWorker_21) [pymodbus.client.base] New Transaction state "SENDING"
2023-02-03 10:57:21.540 DEBUG (SyncWorker_21) [pymodbus.transaction] Changing transaction state from "SENDING" to "WAITING FOR REPLY"
2023-02-03 10:57:21.580 DEBUG (SyncWorker_21) [pymodbus.transaction] Changing transaction state from "WAITING FOR REPLY" to "PROCESSING REPLY"
2023-02-03 10:57:21.581 DEBUG (SyncWorker_21) [pymodbus.transaction] RECV: 0x0 0x11 0x0 0x0 0x0 0x7 0x1 0x4 0x4 0x43 0x3b 0xe1 0xfa
2023-02-03 10:57:21.581 DEBUG (SyncWorker_21) [pymodbus.framer.socket_framer] Processing: 0x0 0x11 0x0 0x0 0x0 0x7 0x1 0x4 0x4 0x43 0x3b 0xe1 0xfa
2023-02-03 10:57:21.581 DEBUG (SyncWorker_21) [pymodbus.factory] Factory Response[ReadInputRegistersResponse': 4]
2023-02-03 10:57:21.581 DEBUG (SyncWorker_21) [pymodbus.transaction] Adding transaction 17
2023-02-03 10:57:21.582 DEBUG (SyncWorker_21) [pymodbus.transaction] Getting transaction 17
2023-02-03 10:57:21.582 DEBUG (SyncWorker_21) [pymodbus.transaction] Changing transaction state from "PROCESSING REPLY" to "TRANSACTION_COMPLETE"
2023-02-03 10:57:21.788 DEBUG (SyncWorker_1) [pymodbus.transaction] Current transaction state - TRANSACTION_COMPLETE
2023-02-03 10:57:21.788 DEBUG (SyncWorker_1) [pymodbus.transaction] Running transaction 18
2023-02-03 10:57:21.789 DEBUG (SyncWorker_1) [pymodbus.transaction] SEND: 0x0 0x12 0x0 0x0 0x0 0x6 0x1 0x4 0x0 0x18 0x0 0x2
2023-02-03 10:57:21.789 DEBUG (SyncWorker_1) [pymodbus.client.base] New Transaction state "SENDING"
2023-02-03 10:57:21.789 DEBUG (SyncWorker_1) [pymodbus.transaction] Changing transaction state from "SENDING" to "WAITING FOR REPLY"
2023-02-03 10:57:21.836 DEBUG (SyncWorker_1) [pymodbus.transaction] Changing transaction state from "WAITING FOR REPLY" to "PROCESSING REPLY"
2023-02-03 10:57:21.837 DEBUG (SyncWorker_1) [pymodbus.transaction] RECV: 0x0 0x12 0x0 0x0 0x0 0x7 0x1 0x4 0x4 0x0 0x0 0x0 0x0
2023-02-03 10:57:21.837 DEBUG (SyncWorker_1) [pymodbus.framer.socket_framer] Processing: 0x0 0x12 0x0 0x0 0x0 0x7 0x1 0x4 0x4 0x0 0x0 0x0 0x0
2023-02-03 10:57:21.838 DEBUG (SyncWorker_1) [pymodbus.factory] Factory Response[ReadInputRegistersResponse': 4]
2023-02-03 10:57:21.838 DEBUG (SyncWorker_1) [pymodbus.transaction] Adding transaction 18
2023-02-03 10:57:21.838 DEBUG (SyncWorker_1) [pymodbus.transaction] Getting transaction 18
2023-02-03 10:57:21.838 DEBUG (SyncWorker_1) [pymodbus.transaction] Changing transaction state from "PROCESSING REPLY" to "TRANSACTION_COMPLETE"
2023-02-03 10:57:22.042 DEBUG (SyncWorker_20) [pymodbus.transaction] Current transaction state - TRANSACTION_COMPLETE
2023-02-03 10:57:22.043 DEBUG (SyncWorker_20) [pymodbus.transaction] Running transaction 19
2023-02-03 10:57:22.043 DEBUG (SyncWorker_20) [pymodbus.transaction] SEND: 0x0 0x13 0x0 0x0 0x0 0x6 0x1 0x4 0x0 0x1a 0x0 0x2
2023-02-03 10:57:22.043 DEBUG (SyncWorker_20) [pymodbus.client.base] New Transaction state "SENDING"
2023-02-03 10:57:22.043 DEBUG (SyncWorker_20) [pymodbus.transaction] Changing transaction state from "SENDING" to "WAITING FOR REPLY"
2023-02-03 10:57:22.082 DEBUG (SyncWorker_20) [pymodbus.transaction] Changing transaction state from "WAITING FOR REPLY" to "PROCESSING REPLY"
2023-02-03 10:57:22.082 DEBUG (SyncWorker_20) [pymodbus.transaction] RECV: 0x0 0x13 0x0 0x0 0x0 0x7 0x1 0x4 0x4 0x0 0x0 0x0 0x0
2023-02-03 10:57:22.083 DEBUG (SyncWorker_20) [pymodbus.framer.socket_framer] Processing: 0x0 0x13 0x0 0x0 0x0 0x7 0x1 0x4 0x4 0x0 0x0 0x0 0x0
2023-02-03 10:57:22.083 DEBUG (SyncWorker_20) [pymodbus.factory] Factory Response[ReadInputRegistersResponse': 4]
2023-02-03 10:57:22.083 DEBUG (SyncWorker_20) [pymodbus.transaction] Adding transaction 19
2023-02-03 10:57:22.083 DEBUG (SyncWorker_20) [pymodbus.transaction] Getting transaction 19
2023-02-03 10:57:22.083 DEBUG (SyncWorker_20) [pymodbus.transaction] Changing transaction state from "PROCESSING REPLY" to "TRANSACTION_COMPLETE"
2023-02-03 10:57:22.286 DEBUG (SyncWorker_5) [pymodbus.transaction] Current transaction state - TRANSACTION_COMPLETE
2023-02-03 10:57:22.286 DEBUG (SyncWorker_5) [pymodbus.transaction] Running transaction 20
2023-02-03 10:57:22.286 DEBUG (SyncWorker_5) [pymodbus.transaction] SEND: 0x0 0x14 0x0 0x0 0x0 0x6 0x1 0x4 0x0 0x1c 0x0 0x2
2023-02-03 10:57:22.287 DEBUG (SyncWorker_5) [pymodbus.client.base] New Transaction state "SENDING"
2023-02-03 10:57:22.287 DEBUG (SyncWorker_5) [pymodbus.transaction] Changing transaction state from "SENDING" to "WAITING FOR REPLY"
2023-02-03 10:57:22.334 DEBUG (SyncWorker_5) [pymodbus.transaction] Changing transaction state from "WAITING FOR REPLY" to "PROCESSING REPLY"
2023-02-03 10:57:22.334 DEBUG (SyncWorker_5) [pymodbus.transaction] RECV: 0x0 0x14 0x0 0x0 0x0 0x7 0x1 0x4 0x4 0x0 0x0 0x0 0x0
2023-02-03 10:57:22.335 DEBUG (SyncWorker_5) [pymodbus.framer.socket_framer] Processing: 0x0 0x14 0x0 0x0 0x0 0x7 0x1 0x4 0x4 0x0 0x0 0x0 0x0
2023-02-03 10:57:22.335 DEBUG (SyncWorker_5) [pymodbus.factory] Factory Response[ReadInputRegistersResponse': 4]
2023-02-03 10:57:22.335 DEBUG (SyncWorker_5) [pymodbus.transaction] Adding transaction 20
2023-02-03 10:57:22.335 DEBUG (SyncWorker_5) [pymodbus.transaction] Getting transaction 20
2023-02-03 10:57:22.335 DEBUG (SyncWorker_5) [pymodbus.transaction] Changing transaction state from "PROCESSING REPLY" to "TRANSACTION_COMPLETE"
2023-02-03 10:57:22.538 DEBUG (SyncWorker_26) [pymodbus.transaction] Current transaction state - TRANSACTION_COMPLETE
2023-02-03 10:57:22.538 DEBUG (SyncWorker_26) [pymodbus.transaction] Running transaction 21
2023-02-03 10:57:22.539 DEBUG (SyncWorker_26) [pymodbus.transaction] SEND: 0x0 0x15 0x0 0x0 0x0 0x6 0x1 0x4 0x0 0x1e 0x0 0x2
2023-02-03 10:57:22.539 DEBUG (SyncWorker_26) [pymodbus.client.base] New Transaction state "SENDING"
2023-02-03 10:57:22.539 DEBUG (SyncWorker_26) [pymodbus.transaction] Changing transaction state from "SENDING" to "WAITING FOR REPLY"
2023-02-03 10:57:22.583 DEBUG (SyncWorker_26) [pymodbus.transaction] Changing transaction state from "WAITING FOR REPLY" to "PROCESSING REPLY"
2023-02-03 10:57:22.583 DEBUG (SyncWorker_26) [pymodbus.transaction] RECV: 0x0 0x15 0x0 0x0 0x0 0x7 0x1 0x4 0x4 0x3f 0x7f 0xff 0x81
2023-02-03 10:57:22.584 DEBUG (SyncWorker_26) [pymodbus.framer.socket_framer] Processing: 0x0 0x15 0x0 0x0 0x0 0x7 0x1 0x4 0x4 0x3f 0x7f 0xff 0x81
2023-02-03 10:57:22.584 DEBUG (SyncWorker_26) [pymodbus.factory] Factory Response[ReadInputRegistersResponse': 4]
2023-02-03 10:57:22.584 DEBUG (SyncWorker_26) [pymodbus.transaction] Adding transaction 21
2023-02-03 10:57:22.584 DEBUG (SyncWorker_26) [pymodbus.transaction] Getting transaction 21
2023-02-03 10:57:22.584 DEBUG (SyncWorker_26) [pymodbus.transaction] Changing transaction state from "PROCESSING REPLY" to "TRANSACTION_COMPLETE"
2023-02-03 10:57:22.789 DEBUG (SyncWorker_2) [pymodbus.transaction] Current transaction state - TRANSACTION_COMPLETE
2023-02-03 10:57:22.790 DEBUG (SyncWorker_2) [pymodbus.transaction] Running transaction 22
2023-02-03 10:57:22.790 DEBUG (SyncWorker_2) [pymodbus.transaction] SEND: 0x0 0x16 0x0 0x0 0x0 0x6 0x1 0x4 0x0 0x20 0x0 0x2
2023-02-03 10:57:22.790 DEBUG (SyncWorker_2) [pymodbus.client.base] New Transaction state "SENDING"
2023-02-03 10:57:22.791 DEBUG (SyncWorker_2) [pymodbus.transaction] Changing transaction state from "SENDING" to "WAITING FOR REPLY"
2023-02-03 10:57:22.835 DEBUG (SyncWorker_2) [pymodbus.transaction] Changing transaction state from "WAITING FOR REPLY" to "PROCESSING REPLY"
2023-02-03 10:57:22.836 DEBUG (SyncWorker_2) [pymodbus.transaction] RECV: 0x0 0x16 0x0 0x0 0x0 0x7 0x1 0x4 0x4 0x3f 0x7f 0xf3 0x46
2023-02-03 10:57:22.836 DEBUG (SyncWorker_2) [pymodbus.framer.socket_framer] Processing: 0x0 0x16 0x0 0x0 0x0 0x7 0x1 0x4 0x4 0x3f 0x7f 0xf3 0x46
2023-02-03 10:57:22.836 DEBUG (SyncWorker_2) [pymodbus.factory] Factory Response[ReadInputRegistersResponse': 4]
2023-02-03 10:57:22.836 DEBUG (SyncWorker_2) [pymodbus.transaction] Adding transaction 22
2023-02-03 10:57:22.837 DEBUG (SyncWorker_2) [pymodbus.transaction] Getting transaction 22
2023-02-03 10:57:22.837 DEBUG (SyncWorker_2) [pymodbus.transaction] Changing transaction state from "PROCESSING REPLY" to "TRANSACTION_COMPLETE"
2023-02-03 10:57:23.044 DEBUG (SyncWorker_19) [pymodbus.transaction] Current transaction state - TRANSACTION_COMPLETE
2023-02-03 10:57:23.044 DEBUG (SyncWorker_19) [pymodbus.transaction] Running transaction 23
2023-02-03 10:57:23.044 DEBUG (SyncWorker_19) [pymodbus.transaction] SEND: 0x0 0x17 0x0 0x0 0x0 0x6 0x1 0x4 0x0 0x22 0x0 0x2
2023-02-03 10:57:23.045 DEBUG (SyncWorker_19) [pymodbus.client.base] New Transaction state "SENDING"
2023-02-03 10:57:23.046 DEBUG (SyncWorker_19) [pymodbus.transaction] Changing transaction state from "SENDING" to "WAITING FOR REPLY"
2023-02-03 10:57:23.089 DEBUG (SyncWorker_19) [pymodbus.transaction] Changing transaction state from "WAITING FOR REPLY" to "PROCESSING REPLY"
2023-02-03 10:57:23.089 DEBUG (SyncWorker_19) [pymodbus.transaction] RECV: 0x0 0x17 0x0 0x0 0x0 0x7 0x1 0x4 0x4 0x3f 0x7f 0xff 0x79
2023-02-03 10:57:23.089 DEBUG (SyncWorker_19) [pymodbus.framer.socket_framer] Processing: 0x0 0x17 0x0 0x0 0x0 0x7 0x1 0x4 0x4 0x3f 0x7f 0xff 0x79
2023-02-03 10:57:23.090 DEBUG (SyncWorker_19) [pymodbus.factory] Factory Response[ReadInputRegistersResponse': 4]
2023-02-03 10:57:23.090 DEBUG (SyncWorker_19) [pymodbus.transaction] Adding transaction 23
2023-02-03 10:57:23.090 DEBUG (SyncWorker_19) [pymodbus.transaction] Getting transaction 23
2023-02-03 10:57:23.090 DEBUG (SyncWorker_19) [pymodbus.transaction] Changing transaction state from "PROCESSING REPLY" to "TRANSACTION_COMPLETE"
2023-02-03 10:57:23.294 DEBUG (SyncWorker_16) [pymodbus.transaction] Current transaction state - TRANSACTION_COMPLETE
2023-02-03 10:57:23.294 DEBUG (SyncWorker_16) [pymodbus.transaction] Running transaction 24
2023-02-03 10:57:23.295 DEBUG (SyncWorker_16) [pymodbus.transaction] SEND: 0x0 0x18 0x0 0x0 0x0 0x6 0x1 0x4 0x0 0x24 0x0 0x2
2023-02-03 10:57:23.295 DEBUG (SyncWorker_16) [pymodbus.client.base] New Transaction state "SENDING"
2023-02-03 10:57:23.298 DEBUG (SyncWorker_16) [pymodbus.transaction] Changing transaction state from "SENDING" to "WAITING FOR REPLY"
2023-02-03 10:57:23.339 DEBUG (SyncWorker_16) [pymodbus.transaction] Changing transaction state from "WAITING FOR REPLY" to "PROCESSING REPLY"
2023-02-03 10:57:23.340 DEBUG (SyncWorker_16) [pymodbus.transaction] RECV: 0x0 0x18 0x0 0x0 0x0 0x7 0x1 0x4 0x4 0x3d 0xb0 0x9c 0x4b
2023-02-03 10:57:23.340 DEBUG (SyncWorker_16) [pymodbus.framer.socket_framer] Processing: 0x0 0x18 0x0 0x0 0x0 0x7 0x1 0x4 0x4 0x3d 0xb0 0x9c 0x4b
2023-02-03 10:57:23.340 DEBUG (SyncWorker_16) [pymodbus.factory] Factory Response[ReadInputRegistersResponse': 4]
2023-02-03 10:57:23.341 DEBUG (SyncWorker_16) [pymodbus.transaction] Adding transaction 24
2023-02-03 10:57:23.341 DEBUG (SyncWorker_16) [pymodbus.transaction] Getting transaction 24
2023-02-03 10:57:23.341 DEBUG (SyncWorker_16) [pymodbus.transaction] Changing transaction state from "PROCESSING REPLY" to "TRANSACTION_COMPLETE"
2023-02-03 10:57:23.546 DEBUG (SyncWorker_15) [pymodbus.transaction] Current transaction state - TRANSACTION_COMPLETE
2023-02-03 10:57:23.546 DEBUG (SyncWorker_15) [pymodbus.transaction] Running transaction 25
2023-02-03 10:57:23.547 DEBUG (SyncWorker_15) [pymodbus.transaction] SEND: 0x0 0x19 0x0 0x0 0x0 0x6 0x1 0x4 0x0 0x26 0x0 0x2
2023-02-03 10:57:23.547 DEBUG (SyncWorker_15) [pymodbus.client.base] New Transaction state "SENDING"
2023-02-03 10:57:23.548 DEBUG (SyncWorker_15) [pymodbus.transaction] Changing transaction state from "SENDING" to "WAITING FOR REPLY"
2023-02-03 10:57:23.591 DEBUG (SyncWorker_15) [pymodbus.transaction] Changing transaction state from "WAITING FOR REPLY" to "PROCESSING REPLY"
2023-02-03 10:57:23.592 DEBUG (SyncWorker_15) [pymodbus.transaction] RECV: 0x0 0x19 0x0 0x0 0x0 0x7 0x1 0x4 0x4 0xbf 0xa4 0xa4 0xed
2023-02-03 10:57:23.592 DEBUG (SyncWorker_15) [pymodbus.framer.socket_framer] Processing: 0x0 0x19 0x0 0x0 0x0 0x7 0x1 0x4 0x4 0xbf 0xa4 0xa4 0xed
2023-02-03 10:57:23.592 DEBUG (SyncWorker_15) [pymodbus.factory] Factory Response[ReadInputRegistersResponse': 4]
2023-02-03 10:57:23.593 DEBUG (SyncWorker_15) [pymodbus.transaction] Adding transaction 25
2023-02-03 10:57:23.593 DEBUG (SyncWorker_15) [pymodbus.transaction] Getting transaction 25
2023-02-03 10:57:23.593 DEBUG (SyncWorker_15) [pymodbus.transaction] Changing transaction state from "PROCESSING REPLY" to "TRANSACTION_COMPLETE"
2023-02-03 10:57:23.799 DEBUG (SyncWorker_9) [pymodbus.transaction] Current transaction state - TRANSACTION_COMPLETE
2023-02-03 10:57:23.799 DEBUG (SyncWorker_9) [pymodbus.transaction] Running transaction 26
2023-02-03 10:57:23.800 DEBUG (SyncWorker_9) [pymodbus.transaction] SEND: 0x0 0x1a 0x0 0x0 0x0 0x6 0x1 0x4 0x0 0x28 0x0 0x2
2023-02-03 10:57:23.800 DEBUG (SyncWorker_9) [pymodbus.client.base] New Transaction state "SENDING"
2023-02-03 10:57:23.803 DEBUG (SyncWorker_9) [pymodbus.transaction] Changing transaction state from "SENDING" to "WAITING FOR REPLY"
2023-02-03 10:57:23.845 DEBUG (SyncWorker_9) [pymodbus.transaction] Changing transaction state from "WAITING FOR REPLY" to "PROCESSING REPLY"
2023-02-03 10:57:23.845 DEBUG (SyncWorker_9) [pymodbus.transaction] RECV: 0x0 0x1a 0x0 0x0 0x0 0x7 0x1 0x4 0x4 0x3e 0x8d 0x15 0xdf
2023-02-03 10:57:23.846 DEBUG (SyncWorker_9) [pymodbus.framer.socket_framer] Processing: 0x0 0x1a 0x0 0x0 0x0 0x7 0x1 0x4 0x4 0x3e 0x8d 0x15 0xdf
2023-02-03 10:57:23.846 DEBUG (SyncWorker_9) [pymodbus.factory] Factory Response[ReadInputRegistersResponse': 4]
2023-02-03 10:57:23.846 DEBUG (SyncWorker_9) [pymodbus.transaction] Adding transaction 26
2023-02-03 10:57:23.846 DEBUG (SyncWorker_9) [pymodbus.transaction] Getting transaction 26
2023-02-03 10:57:23.846 DEBUG (SyncWorker_9) [pymodbus.transaction] Changing transaction state from "PROCESSING REPLY" to "TRANSACTION_COMPLETE"
2023-02-03 10:57:24.052 DEBUG (SyncWorker_12) [pymodbus.transaction] Current transaction state - TRANSACTION_COMPLETE
2023-02-03 10:57:24.053 DEBUG (SyncWorker_12) [pymodbus.transaction] Running transaction 27
2023-02-03 10:57:24.053 DEBUG (SyncWorker_12) [pymodbus.transaction] SEND: 0x0 0x1b 0x0 0x0 0x0 0x6 0x1 0x4 0x0 0x2a 0x0 0x2
2023-02-03 10:57:24.053 DEBUG (SyncWorker_12) [pymodbus.client.base] New Transaction state "SENDING"
2023-02-03 10:57:24.054 DEBUG (SyncWorker_12) [pymodbus.transaction] Changing transaction state from "SENDING" to "WAITING FOR REPLY"
2023-02-03 10:57:24.096 DEBUG (SyncWorker_12) [pymodbus.transaction] Changing transaction state from "WAITING FOR REPLY" to "PROCESSING REPLY"
2023-02-03 10:57:24.096 DEBUG (SyncWorker_12) [pymodbus.transaction] RECV: 0x0 0x1b 0x0 0x0 0x0 0x7 0x1 0x4 0x4 0x43 0x63 0x25 0x91
2023-02-03 10:57:24.097 DEBUG (SyncWorker_12) [pymodbus.framer.socket_framer] Processing: 0x0 0x1b 0x0 0x0 0x0 0x7 0x1 0x4 0x4 0x43 0x63 0x25 0x91
2023-02-03 10:57:24.097 DEBUG (SyncWorker_12) [pymodbus.factory] Factory Response[ReadInputRegistersResponse': 4]
2023-02-03 10:57:24.097 DEBUG (SyncWorker_12) [pymodbus.transaction] Adding transaction 27
2023-02-03 10:57:24.098 DEBUG (SyncWorker_12) [pymodbus.transaction] Getting transaction 27
2023-02-03 10:57:24.098 DEBUG (SyncWorker_12) [pymodbus.transaction] Changing transaction state from "PROCESSING REPLY" to "TRANSACTION_COMPLETE"
2023-02-03 10:57:24.304 DEBUG (SyncWorker_11) [pymodbus.transaction] Current transaction state - TRANSACTION_COMPLETE
2023-02-03 10:57:24.305 DEBUG (SyncWorker_11) [pymodbus.transaction] Running transaction 28
2023-02-03 10:57:24.305 DEBUG (SyncWorker_11) [pymodbus.transaction] SEND: 0x0 0x1c 0x0 0x0 0x0 0x6 0x1 0x4 0x0 0x2e 0x0 0x2
2023-02-03 10:57:24.305 DEBUG (SyncWorker_11) [pymodbus.client.base] New Transaction state "SENDING"
2023-02-03 10:57:24.307 DEBUG (SyncWorker_11) [pymodbus.transaction] Changing transaction state from "SENDING" to "WAITING FOR REPLY"
2023-02-03 10:57:24.349 DEBUG (SyncWorker_11) [pymodbus.transaction] Changing transaction state from "WAITING FOR REPLY" to "PROCESSING REPLY"
2023-02-03 10:57:24.349 DEBUG (SyncWorker_11) [pymodbus.transaction] RECV: 0x0 0x1c 0x0 0x0 0x0 0x7 0x1 0x4 0x4 0x3f 0x72 0x40 0xb
2023-02-03 10:57:24.350 DEBUG (SyncWorker_11) [pymodbus.framer.socket_framer] Processing: 0x0 0x1c 0x0 0x0 0x0 0x7 0x1 0x4 0x4 0x3f 0x72 0x40 0xb
2023-02-03 10:57:24.350 DEBUG (SyncWorker_11) [pymodbus.factory] Factory Response[ReadInputRegistersResponse': 4]
2023-02-03 10:57:24.350 DEBUG (SyncWorker_11) [pymodbus.transaction] Adding transaction 28
2023-02-03 10:57:24.350 DEBUG (SyncWorker_11) [pymodbus.transaction] Getting transaction 28
2023-02-03 10:57:24.351 DEBUG (SyncWorker_11) [pymodbus.transaction] Changing transaction state from "PROCESSING REPLY" to "TRANSACTION_COMPLETE"
2023-02-03 10:57:24.555 DEBUG (SyncWorker_21) [pymodbus.transaction] Current transaction state - TRANSACTION_COMPLETE
2023-02-03 10:57:24.556 DEBUG (SyncWorker_21) [pymodbus.transaction] Running transaction 29
2023-02-03 10:57:24.556 DEBUG (SyncWorker_21) [pymodbus.transaction] SEND: 0x0 0x1d 0x0 0x0 0x0 0x6 0x1 0x4 0x0 0x30 0x0 0x2
2023-02-03 10:57:24.556 DEBUG (SyncWorker_21) [pymodbus.client.base] New Transaction state "SENDING"
2023-02-03 10:57:24.559 DEBUG (SyncWorker_21) [pymodbus.transaction] Changing transaction state from "SENDING" to "WAITING FOR REPLY"
2023-02-03 10:57:24.602 DEBUG (SyncWorker_21) [pymodbus.transaction] Changing transaction state from "WAITING FOR REPLY" to "PROCESSING REPLY"
2023-02-03 10:57:24.603 DEBUG (SyncWorker_21) [pymodbus.transaction] RECV: 0x0 0x1d 0x0 0x0 0x0 0x7 0x1 0x4 0x4 0x40 0x35 0xb0 0x8
2023-02-03 10:57:24.603 DEBUG (SyncWorker_21) [pymodbus.framer.socket_framer] Processing: 0x0 0x1d 0x0 0x0 0x0 0x7 0x1 0x4 0x4 0x40 0x35 0xb0 0x8
2023-02-03 10:57:24.603 DEBUG (SyncWorker_21) [pymodbus.factory] Factory Response[ReadInputRegistersResponse': 4]
2023-02-03 10:57:24.604 DEBUG (SyncWorker_21) [pymodbus.transaction] Adding transaction 29
2023-02-03 10:57:24.604 DEBUG (SyncWorker_21) [pymodbus.transaction] Getting transaction 29
2023-02-03 10:57:24.604 DEBUG (SyncWorker_21) [pymodbus.transaction] Changing transaction state from "PROCESSING REPLY" to "TRANSACTION_COMPLETE"
2023-02-03 10:57:24.810 DEBUG (SyncWorker_24) [pymodbus.transaction] Current transaction state - TRANSACTION_COMPLETE
2023-02-03 10:57:24.811 DEBUG (SyncWorker_24) [pymodbus.transaction] Running transaction 30
2023-02-03 10:57:24.812 DEBUG (SyncWorker_24) [pymodbus.transaction] SEND: 0x0 0x1e 0x0 0x0 0x0 0x6 0x1 0x4 0x0 0x38 0x0 0x2
2023-02-03 10:57:24.812 DEBUG (SyncWorker_24) [pymodbus.client.base] New Transaction state "SENDING"
2023-02-03 10:57:24.813 DEBUG (SyncWorker_24) [pymodbus.transaction] Changing transaction state from "SENDING" to "WAITING FOR REPLY"
2023-02-03 10:57:24.858 DEBUG (SyncWorker_24) [pymodbus.transaction] Changing transaction state from "WAITING FOR REPLY" to "PROCESSING REPLY"
2023-02-03 10:57:24.858 DEBUG (SyncWorker_24) [pymodbus.transaction] RECV: 0x0 0x1e 0x0 0x0 0x0 0x7 0x1 0x4 0x4 0x44 0xd 0xa7 0xb1
2023-02-03 10:57:24.858 DEBUG (SyncWorker_24) [pymodbus.framer.socket_framer] Processing: 0x0 0x1e 0x0 0x0 0x0 0x7 0x1 0x4 0x4 0x44 0xd 0xa7 0xb1
2023-02-03 10:57:24.858 DEBUG (SyncWorker_24) [pymodbus.factory] Factory Response[ReadInputRegistersResponse': 4]
2023-02-03 10:57:24.859 DEBUG (SyncWorker_24) [pymodbus.transaction] Adding transaction 30
2023-02-03 10:57:24.859 DEBUG (SyncWorker_24) [pymodbus.transaction] Getting transaction 30
2023-02-03 10:57:24.859 DEBUG (SyncWorker_24) [pymodbus.transaction] Changing transaction state from "PROCESSING REPLY" to "TRANSACTION_COMPLETE"
2023-02-03 10:57:25.064 DEBUG (SyncWorker_17) [pymodbus.transaction] Current transaction state - TRANSACTION_COMPLETE
2023-02-03 10:57:25.064 DEBUG (SyncWorker_17) [pymodbus.transaction] Running transaction 31
2023-02-03 10:57:25.064 DEBUG (SyncWorker_17) [pymodbus.transaction] SEND: 0x0 0x1f 0x0 0x0 0x0 0x6 0x1 0x4 0x0 0x3c 0x0 0x2
2023-02-03 10:57:25.065 DEBUG (SyncWorker_17) [pymodbus.client.base] New Transaction state "SENDING"
2023-02-03 10:57:25.066 DEBUG (SyncWorker_17) [pymodbus.transaction] Changing transaction state from "SENDING" to "WAITING FOR REPLY"
2023-02-03 10:57:25.106 DEBUG (SyncWorker_17) [pymodbus.transaction] Changing transaction state from "WAITING FOR REPLY" to "PROCESSING REPLY"
2023-02-03 10:57:25.106 DEBUG (SyncWorker_17) [pymodbus.transaction] RECV: 0x0 0x1f 0x0 0x0 0x0 0x7 0x1 0x4 0x4 0x0 0x0 0x0 0x0
2023-02-03 10:57:25.107 DEBUG (SyncWorker_17) [pymodbus.framer.socket_framer] Processing: 0x0 0x1f 0x0 0x0 0x0 0x7 0x1 0x4 0x4 0x0 0x0 0x0 0x0
2023-02-03 10:57:25.107 DEBUG (SyncWorker_17) [pymodbus.factory] Factory Response[ReadInputRegistersResponse': 4]
2023-02-03 10:57:25.107 DEBUG (SyncWorker_17) [pymodbus.transaction] Adding transaction 31
2023-02-03 10:57:25.107 DEBUG (SyncWorker_17) [pymodbus.transaction] Getting transaction 31
2023-02-03 10:57:25.108 DEBUG (SyncWorker_17) [pymodbus.transaction] Changing transaction state from "PROCESSING REPLY" to "TRANSACTION_COMPLETE"
2023-02-03 10:57:25.311 DEBUG (SyncWorker_3) [pymodbus.transaction] Current transaction state - TRANSACTION_COMPLETE
2023-02-03 10:57:25.311 DEBUG (SyncWorker_3) [pymodbus.transaction] Running transaction 32
2023-02-03 10:57:25.312 DEBUG (SyncWorker_3) [pymodbus.transaction] SEND: 0x0 0x20 0x0 0x0 0x0 0x6 0x1 0x4 0x0 0x3e 0x0 0x2
2023-02-03 10:57:25.312 DEBUG (SyncWorker_3) [pymodbus.client.base] New Transaction state "SENDING"
2023-02-03 10:57:25.316 DEBUG (SyncWorker_3) [pymodbus.transaction] Changing transaction state from "SENDING" to "WAITING FOR REPLY"
2023-02-03 10:57:25.362 DEBUG (SyncWorker_3) [pymodbus.transaction] Changing transaction state from "WAITING FOR REPLY" to "PROCESSING REPLY"
2023-02-03 10:57:25.362 DEBUG (SyncWorker_3) [pymodbus.transaction] RECV: 0x0 0x20 0x0 0x0 0x0 0x7 0x1 0x4 0x4 0x3f 0x7f 0xff 0x7d
2023-02-03 10:57:25.362 DEBUG (SyncWorker_3) [pymodbus.framer.socket_framer] Processing: 0x0 0x20 0x0 0x0 0x0 0x7 0x1 0x4 0x4 0x3f 0x7f 0xff 0x7d
2023-02-03 10:57:25.362 DEBUG (SyncWorker_3) [pymodbus.factory] Factory Response[ReadInputRegistersResponse': 4]
2023-02-03 10:57:25.363 DEBUG (SyncWorker_3) [pymodbus.transaction] Adding transaction 32
2023-02-03 10:57:25.363 DEBUG (SyncWorker_3) [pymodbus.transaction] Getting transaction 32
2023-02-03 10:57:25.363 DEBUG (SyncWorker_3) [pymodbus.transaction] Changing transaction state from "PROCESSING REPLY" to "TRANSACTION_COMPLETE"
2023-02-03 10:57:25.571 DEBUG (SyncWorker_4) [pymodbus.transaction] Current transaction state - TRANSACTION_COMPLETE
2023-02-03 10:57:25.571 DEBUG (SyncWorker_4) [pymodbus.transaction] Running transaction 33
2023-02-03 10:57:25.571 DEBUG (SyncWorker_4) [pymodbus.transaction] SEND: 0x0 0x21 0x0 0x0 0x0 0x6 0x1 0x4 0x0 0x42 0x0 0x2
2023-02-03 10:57:25.571 DEBUG (SyncWorker_4) [pymodbus.client.base] New Transaction state "SENDING"
2023-02-03 10:57:25.572 DEBUG (SyncWorker_4) [pymodbus.transaction] Changing transaction state from "SENDING" to "WAITING FOR REPLY"
2023-02-03 10:57:25.616 DEBUG (SyncWorker_4) [pymodbus.transaction] Changing transaction state from "WAITING FOR REPLY" to "PROCESSING REPLY"
2023-02-03 10:57:25.616 DEBUG (SyncWorker_4) [pymodbus.transaction] RECV: 0x0 0x21 0x0 0x0 0x0 0x7 0x1 0x4 0x4 0xbe 0x41 0x41 0x53
2023-02-03 10:57:25.616 DEBUG (SyncWorker_4) [pymodbus.framer.socket_framer] Processing: 0x0 0x21 0x0 0x0 0x0 0x7 0x1 0x4 0x4 0xbe 0x41 0x41 0x53
2023-02-03 10:57:25.616 DEBUG (SyncWorker_4) [pymodbus.factory] Factory Response[ReadInputRegistersResponse': 4]
2023-02-03 10:57:25.616 DEBUG (SyncWorker_4) [pymodbus.transaction] Adding transaction 33
2023-02-03 10:57:25.617 DEBUG (SyncWorker_4) [pymodbus.transaction] Getting transaction 33
2023-02-03 10:57:25.617 DEBUG (SyncWorker_4) [pymodbus.transaction] Changing transaction state from "PROCESSING REPLY" to "TRANSACTION_COMPLETE"
2023-02-03 10:57:25.821 DEBUG (SyncWorker_0) [pymodbus.transaction] Current transaction state - TRANSACTION_COMPLETE
2023-02-03 10:57:25.821 DEBUG (SyncWorker_0) [pymodbus.transaction] Running transaction 34
2023-02-03 10:57:25.821 DEBUG (SyncWorker_0) [pymodbus.transaction] SEND: 0x0 0x22 0x0 0x0 0x0 0x6 0x1 0x4 0x0 0x46 0x0 0x2
2023-02-03 10:57:25.821 DEBUG (SyncWorker_0) [pymodbus.client.base] New Transaction state "SENDING"
2023-02-03 10:57:25.822 DEBUG (SyncWorker_0) [pymodbus.transaction] Changing transaction state from "SENDING" to "WAITING FOR REPLY"
2023-02-03 10:57:25.862 DEBUG (SyncWorker_0) [pymodbus.transaction] Changing transaction state from "WAITING FOR REPLY" to "PROCESSING REPLY"
2023-02-03 10:57:25.863 DEBUG (SyncWorker_0) [pymodbus.transaction] RECV: 0x0 0x22 0x0 0x0 0x0 0x7 0x1 0x4 0x4 0x42 0x48 0x2 0x67
2023-02-03 10:57:25.863 DEBUG (SyncWorker_0) [pymodbus.framer.socket_framer] Processing: 0x0 0x22 0x0 0x0 0x0 0x7 0x1 0x4 0x4 0x42 0x48 0x2 0x67
2023-02-03 10:57:25.863 DEBUG (SyncWorker_0) [pymodbus.factory] Factory Response[ReadInputRegistersResponse': 4]
2023-02-03 10:57:25.863 DEBUG (SyncWorker_0) [pymodbus.transaction] Adding transaction 34
2023-02-03 10:57:25.863 DEBUG (SyncWorker_0) [pymodbus.transaction] Getting transaction 34
2023-02-03 10:57:25.863 DEBUG (SyncWorker_0) [pymodbus.transaction] Changing transaction state from "PROCESSING REPLY" to "TRANSACTION_COMPLETE"
2023-02-03 10:57:26.066 DEBUG (SyncWorker_13) [pymodbus.transaction] Current transaction state - TRANSACTION_COMPLETE
2023-02-03 10:57:26.066 DEBUG (SyncWorker_13) [pymodbus.transaction] Running transaction 35
2023-02-03 10:57:26.066 DEBUG (SyncWorker_13) [pymodbus.transaction] SEND: 0x0 0x23 0x0 0x0 0x0 0x6 0x1 0x4 0x0 0x4c 0x0 0x2
2023-02-03 10:57:26.066 DEBUG (SyncWorker_13) [pymodbus.client.base] New Transaction state "SENDING"
2023-02-03 10:57:26.067 DEBUG (SyncWorker_13) [pymodbus.transaction] Changing transaction state from "SENDING" to "WAITING FOR REPLY"
2023-02-03 10:57:26.107 DEBUG (SyncWorker_13) [pymodbus.transaction] Changing transaction state from "WAITING FOR REPLY" to "PROCESSING REPLY"
2023-02-03 10:57:26.107 DEBUG (SyncWorker_13) [pymodbus.transaction] RECV: 0x0 0x23 0x0 0x0 0x0 0x7 0x1 0x4 0x4 0x43 0xdd 0x3 0x12
2023-02-03 10:57:26.107 DEBUG (SyncWorker_13) [pymodbus.framer.socket_framer] Processing: 0x0 0x23 0x0 0x0 0x0 0x7 0x1 0x4 0x4 0x43 0xdd 0x3 0x12
2023-02-03 10:57:26.107 DEBUG (SyncWorker_13) [pymodbus.factory] Factory Response[ReadInputRegistersResponse': 4]
2023-02-03 10:57:26.107 DEBUG (SyncWorker_13) [pymodbus.transaction] Adding transaction 35
2023-02-03 10:57:26.108 DEBUG (SyncWorker_13) [pymodbus.transaction] Getting transaction 35
2023-02-03 10:57:26.108 DEBUG (SyncWorker_13) [pymodbus.transaction] Changing transaction state from "PROCESSING REPLY" to "TRANSACTION_COMPLETE"
2023-02-03 10:57:26.310 DEBUG (SyncWorker_8) [pymodbus.transaction] Current transaction state - TRANSACTION_COMPLETE
2023-02-03 10:57:26.310 DEBUG (SyncWorker_8) [pymodbus.transaction] Running transaction 36
2023-02-03 10:57:26.310 DEBUG (SyncWorker_8) [pymodbus.transaction] SEND: 0x0 0x24 0x0 0x0 0x0 0x6 0x1 0x4 0x0 0x4e 0x0 0x2
2023-02-03 10:57:26.310 DEBUG (SyncWorker_8) [pymodbus.client.base] New Transaction state "SENDING"
2023-02-03 10:57:26.311 DEBUG (SyncWorker_8) [pymodbus.transaction] Changing transaction state from "SENDING" to "WAITING FOR REPLY"
2023-02-03 10:57:26.351 DEBUG (SyncWorker_8) [pymodbus.transaction] Changing transaction state from "WAITING FOR REPLY" to "PROCESSING REPLY"
2023-02-03 10:57:26.351 DEBUG (SyncWorker_8) [pymodbus.transaction] RECV: 0x0 0x24 0x0 0x0 0x0 0x7 0x1 0x4 0x4 0x42 0x0 0xba 0x5e
2023-02-03 10:57:26.352 DEBUG (SyncWorker_8) [pymodbus.framer.socket_framer] Processing: 0x0 0x24 0x0 0x0 0x0 0x7 0x1 0x4 0x4 0x42 0x0 0xba 0x5e
2023-02-03 10:57:26.352 DEBUG (SyncWorker_8) [pymodbus.factory] Factory Response[ReadInputRegistersResponse': 4]
2023-02-03 10:57:26.352 DEBUG (SyncWorker_8) [pymodbus.transaction] Adding transaction 36
2023-02-03 10:57:26.352 DEBUG (SyncWorker_8) [pymodbus.transaction] Getting transaction 36
2023-02-03 10:57:26.352 DEBUG (SyncWorker_8) [pymodbus.transaction] Changing transaction state from "PROCESSING REPLY" to "TRANSACTION_COMPLETE"
2023-02-03 10:57:26.555 DEBUG (SyncWorker_6) [pymodbus.transaction] Current transaction state - TRANSACTION_COMPLETE
2023-02-03 10:57:26.555 DEBUG (SyncWorker_6) [pymodbus.transaction] Running transaction 37
2023-02-03 10:57:26.555 DEBUG (SyncWorker_6) [pymodbus.transaction] SEND: 0x0 0x25 0x0 0x0 0x0 0x6 0x1 0x4 0x0 0x50 0x0 0x2
2023-02-03 10:57:26.556 DEBUG (SyncWorker_6) [pymodbus.client.base] New Transaction state "SENDING"
2023-02-03 10:57:26.557 DEBUG (SyncWorker_6) [pymodbus.transaction] Changing transaction state from "SENDING" to "WAITING FOR REPLY"
2023-02-03 10:57:26.600 DEBUG (SyncWorker_6) [pymodbus.transaction] Changing transaction state from "WAITING FOR REPLY" to "PROCESSING REPLY"
2023-02-03 10:57:26.600 DEBUG (SyncWorker_6) [pymodbus.transaction] RECV: 0x0 0x25 0x0 0x0 0x0 0x7 0x1 0x4 0x4 0x46 0x88 0x1d 0x32
2023-02-03 10:57:26.601 DEBUG (SyncWorker_6) [pymodbus.framer.socket_framer] Processing: 0x0 0x25 0x0 0x0 0x0 0x7 0x1 0x4 0x4 0x46 0x88 0x1d 0x32
2023-02-03 10:57:26.601 DEBUG (SyncWorker_6) [pymodbus.factory] Factory Response[ReadInputRegistersResponse': 4]
2023-02-03 10:57:26.602 DEBUG (SyncWorker_6) [pymodbus.transaction] Adding transaction 37
2023-02-03 10:57:26.602 DEBUG (SyncWorker_6) [pymodbus.transaction] Getting transaction 37
2023-02-03 10:57:26.602 DEBUG (SyncWorker_6) [pymodbus.transaction] Changing transaction state from "PROCESSING REPLY" to "TRANSACTION_COMPLETE"
2023-02-03 10:57:26.809 DEBUG (SyncWorker_22) [pymodbus.transaction] Current transaction state - TRANSACTION_COMPLETE
2023-02-03 10:57:26.809 DEBUG (SyncWorker_22) [pymodbus.transaction] Running transaction 38
2023-02-03 10:57:26.809 DEBUG (SyncWorker_22) [pymodbus.transaction] SEND: 0x0 0x26 0x0 0x0 0x0 0x6 0x1 0x4 0x0 0x52 0x0 0x2
2023-02-03 10:57:26.810 DEBUG (SyncWorker_22) [pymodbus.client.base] New Transaction state "SENDING"
2023-02-03 10:57:26.810 DEBUG (SyncWorker_22) [pymodbus.transaction] Changing transaction state from "SENDING" to "WAITING FOR REPLY"
2023-02-03 10:57:26.850 DEBUG (SyncWorker_22) [pymodbus.transaction] Changing transaction state from "WAITING FOR REPLY" to "PROCESSING REPLY"
2023-02-03 10:57:26.850 DEBUG (SyncWorker_22) [pymodbus.transaction] RECV: 0x0 0x26 0x0 0x0 0x0 0x7 0x1 0x4 0x4 0x48 0x0 0x0 0x0
2023-02-03 10:57:26.851 DEBUG (SyncWorker_22) [pymodbus.framer.socket_framer] Processing: 0x0 0x26 0x0 0x0 0x0 0x7 0x1 0x4 0x4 0x48 0x0 0x0 0x0
2023-02-03 10:57:26.851 DEBUG (SyncWorker_22) [pymodbus.factory] Factory Response[ReadInputRegistersResponse': 4]
2023-02-03 10:57:26.851 DEBUG (SyncWorker_22) [pymodbus.transaction] Adding transaction 38
2023-02-03 10:57:26.851 DEBUG (SyncWorker_22) [pymodbus.transaction] Getting transaction 38
2023-02-03 10:57:26.851 DEBUG (SyncWorker_22) [pymodbus.transaction] Changing transaction state from "PROCESSING REPLY" to "TRANSACTION_COMPLETE"
2023-02-03 10:57:27.054 DEBUG (SyncWorker_10) [pymodbus.transaction] Current transaction state - TRANSACTION_COMPLETE
2023-02-03 10:57:27.054 DEBUG (SyncWorker_10) [pymodbus.transaction] Running transaction 39
2023-02-03 10:57:27.054 DEBUG (SyncWorker_10) [pymodbus.transaction] SEND: 0x0 0x27 0x0 0x0 0x0 0x6 0x1 0x4 0x0 0x56 0x0 0x2
2023-02-03 10:57:27.054 DEBUG (SyncWorker_10) [pymodbus.client.base] New Transaction state "SENDING"
2023-02-03 10:57:27.055 DEBUG (SyncWorker_10) [pymodbus.transaction] Changing transaction state from "SENDING" to "WAITING FOR REPLY"
2023-02-03 10:57:27.097 DEBUG (SyncWorker_10) [pymodbus.transaction] Changing transaction state from "WAITING FOR REPLY" to "PROCESSING REPLY"
2023-02-03 10:57:27.097 DEBUG (SyncWorker_10) [pymodbus.transaction] RECV: 0x0 0x27 0x0 0x0 0x0 0x7 0x1 0x4 0x4 0x46 0x4b 0xe4 0x3
2023-02-03 10:57:27.097 DEBUG (SyncWorker_10) [pymodbus.framer.socket_framer] Processing: 0x0 0x27 0x0 0x0 0x0 0x7 0x1 0x4 0x4 0x46 0x4b 0xe4 0x3
2023-02-03 10:57:27.097 DEBUG (SyncWorker_10) [pymodbus.factory] Factory Response[ReadInputRegistersResponse': 4]
2023-02-03 10:57:27.097 DEBUG (SyncWorker_10) [pymodbus.transaction] Adding transaction 39
2023-02-03 10:57:27.098 DEBUG (SyncWorker_10) [pymodbus.transaction] Getting transaction 39
2023-02-03 10:57:27.098 DEBUG (SyncWorker_10) [pymodbus.transaction] Changing transaction state from "PROCESSING REPLY" to "TRANSACTION_COMPLETE"
2023-02-03 10:57:27.301 DEBUG (SyncWorker_23) [pymodbus.transaction] Current transaction state - TRANSACTION_COMPLETE
2023-02-03 10:57:27.301 DEBUG (SyncWorker_23) [pymodbus.transaction] Running transaction 40
2023-02-03 10:57:27.301 DEBUG (SyncWorker_23) [pymodbus.transaction] SEND: 0x0 0x28 0x0 0x0 0x0 0x6 0x1 0x4 0x0 0x64 0x0 0x2
2023-02-03 10:57:27.301 DEBUG (SyncWorker_23) [pymodbus.client.base] New Transaction state "SENDING"
2023-02-03 10:57:27.302 DEBUG (SyncWorker_23) [pymodbus.transaction] Changing transaction state from "SENDING" to "WAITING FOR REPLY"
2023-02-03 10:57:27.344 DEBUG (SyncWorker_23) [pymodbus.transaction] Changing transaction state from "WAITING FOR REPLY" to "PROCESSING REPLY"
2023-02-03 10:57:27.344 DEBUG (SyncWorker_23) [pymodbus.transaction] RECV: 0x0 0x28 0x0 0x0 0x0 0x7 0x1 0x4 0x4 0x43 0xda 0xee 0x82
2023-02-03 10:57:27.345 DEBUG (SyncWorker_23) [pymodbus.framer.socket_framer] Processing: 0x0 0x28 0x0 0x0 0x0 0x7 0x1 0x4 0x4 0x43 0xda 0xee 0x82
2023-02-03 10:57:27.345 DEBUG (SyncWorker_23) [pymodbus.factory] Factory Response[ReadInputRegistersResponse': 4]
2023-02-03 10:57:27.345 DEBUG (SyncWorker_23) [pymodbus.transaction] Adding transaction 40
2023-02-03 10:57:27.345 DEBUG (SyncWorker_23) [pymodbus.transaction] Getting transaction 40
2023-02-03 10:57:27.345 DEBUG (SyncWorker_23) [pymodbus.transaction] Changing transaction state from "PROCESSING REPLY" to "TRANSACTION_COMPLETE"
2023-02-03 10:57:27.549 DEBUG (SyncWorker_14) [pymodbus.transaction] Current transaction state - TRANSACTION_COMPLETE
2023-02-03 10:57:27.549 DEBUG (SyncWorker_14) [pymodbus.transaction] Running transaction 41
2023-02-03 10:57:27.549 DEBUG (SyncWorker_14) [pymodbus.transaction] SEND: 0x0 0x29 0x0 0x0 0x0 0x6 0x1 0x4 0x0 0x66 0x0 0x2
2023-02-03 10:57:27.550 DEBUG (SyncWorker_14) [pymodbus.client.base] New Transaction state "SENDING"
2023-02-03 10:57:27.550 DEBUG (SyncWorker_14) [pymodbus.transaction] Changing transaction state from "SENDING" to "WAITING FOR REPLY"
2023-02-03 10:57:27.592 DEBUG (SyncWorker_14) [pymodbus.transaction] Changing transaction state from "WAITING FOR REPLY" to "PROCESSING REPLY"
2023-02-03 10:57:27.592 DEBUG (SyncWorker_14) [pymodbus.transaction] RECV: 0x0 0x29 0x0 0x0 0x0 0x7 0x1 0x4 0x4 0x46 0x4b 0xe5 0x1c
2023-02-03 10:57:27.592 DEBUG (SyncWorker_14) [pymodbus.framer.socket_framer] Processing: 0x0 0x29 0x0 0x0 0x0 0x7 0x1 0x4 0x4 0x46 0x4b 0xe5 0x1c
2023-02-03 10:57:27.593 DEBUG (SyncWorker_14) [pymodbus.factory] Factory Response[ReadInputRegistersResponse': 4]
2023-02-03 10:57:27.593 DEBUG (SyncWorker_14) [pymodbus.transaction] Adding transaction 41
2023-02-03 10:57:27.593 DEBUG (SyncWorker_14) [pymodbus.transaction] Getting transaction 41
2023-02-03 10:57:27.593 DEBUG (SyncWorker_14) [pymodbus.transaction] Changing transaction state from "PROCESSING REPLY" to "TRANSACTION_COMPLETE"
2023-02-03 10:57:27.803 DEBUG (SyncWorker_25) [pymodbus.transaction] Current transaction state - TRANSACTION_COMPLETE
2023-02-03 10:57:27.803 DEBUG (SyncWorker_25) [pymodbus.transaction] Running transaction 42
2023-02-03 10:57:27.803 DEBUG (SyncWorker_25) [pymodbus.transaction] SEND: 0x0 0x2a 0x0 0x0 0x0 0x6 0x1 0x4 0x0 0x68 0x0 0x2
2023-02-03 10:57:27.804 DEBUG (SyncWorker_25) [pymodbus.client.base] New Transaction state "SENDING"
2023-02-03 10:57:27.805 DEBUG (SyncWorker_25) [pymodbus.transaction] Changing transaction state from "SENDING" to "WAITING FOR REPLY"
2023-02-03 10:57:27.847 DEBUG (SyncWorker_25) [pymodbus.transaction] Changing transaction state from "WAITING FOR REPLY" to "PROCESSING REPLY"
2023-02-03 10:57:27.847 DEBUG (SyncWorker_25) [pymodbus.transaction] RECV: 0x0 0x2a 0x0 0x0 0x0 0x7 0x1 0x4 0x4 0x3c 0x67 0x8e 0x47
2023-02-03 10:57:27.847 DEBUG (SyncWorker_25) [pymodbus.framer.socket_framer] Processing: 0x0 0x2a 0x0 0x0 0x0 0x7 0x1 0x4 0x4 0x3c 0x67 0x8e 0x47
2023-02-03 10:57:27.848 DEBUG (SyncWorker_25) [pymodbus.factory] Factory Response[ReadInputRegistersResponse': 4]
2023-02-03 10:57:27.848 DEBUG (SyncWorker_25) [pymodbus.transaction] Adding transaction 42
2023-02-03 10:57:27.848 DEBUG (SyncWorker_25) [pymodbus.transaction] Getting transaction 42
2023-02-03 10:57:27.848 DEBUG (SyncWorker_25) [pymodbus.transaction] Changing transaction state from "PROCESSING REPLY" to "TRANSACTION_COMPLETE"
2023-02-03 10:57:28.053 DEBUG (SyncWorker_1) [pymodbus.transaction] Current transaction state - TRANSACTION_COMPLETE
2023-02-03 10:57:28.053 DEBUG (SyncWorker_1) [pymodbus.transaction] Running transaction 43
2023-02-03 10:57:28.054 DEBUG (SyncWorker_1) [pymodbus.transaction] SEND: 0x0 0x2b 0x0 0x0 0x0 0x6 0x1 0x4 0x0 0x6a 0x0 0x2
2023-02-03 10:57:28.054 DEBUG (SyncWorker_1) [pymodbus.client.base] New Transaction state "SENDING"
2023-02-03 10:57:28.055 DEBUG (SyncWorker_1) [pymodbus.transaction] Changing transaction state from "SENDING" to "WAITING FOR REPLY"
2023-02-03 10:57:28.097 DEBUG (SyncWorker_1) [pymodbus.transaction] Changing transaction state from "WAITING FOR REPLY" to "PROCESSING REPLY"
2023-02-03 10:57:28.097 DEBUG (SyncWorker_1) [pymodbus.transaction] RECV: 0x0 0x2b 0x0 0x0 0x0 0x7 0x1 0x4 0x4 0x3e 0x18 0x3d 0x9a
2023-02-03 10:57:28.097 DEBUG (SyncWorker_1) [pymodbus.framer.socket_framer] Processing: 0x0 0x2b 0x0 0x0 0x0 0x7 0x1 0x4 0x4 0x3e 0x18 0x3d 0x9a
2023-02-03 10:57:28.098 DEBUG (SyncWorker_1) [pymodbus.factory] Factory Response[ReadInputRegistersResponse': 4]
2023-02-03 10:57:28.098 DEBUG (SyncWorker_1) [pymodbus.transaction] Adding transaction 43
2023-02-03 10:57:28.098 DEBUG (SyncWorker_1) [pymodbus.transaction] Getting transaction 43
2023-02-03 10:57:28.098 DEBUG (SyncWorker_1) [pymodbus.transaction] Changing transaction state from "PROCESSING REPLY" to "TRANSACTION_COMPLETE"
2023-02-03 10:57:28.302 DEBUG (SyncWorker_18) [pymodbus.transaction] Current transaction state - TRANSACTION_COMPLETE
2023-02-03 10:57:28.303 DEBUG (SyncWorker_18) [pymodbus.transaction] Running transaction 44
2023-02-03 10:57:28.303 DEBUG (SyncWorker_18) [pymodbus.transaction] SEND: 0x0 0x2c 0x0 0x0 0x0 0x6 0x1 0x4 0x0 0xc8 0x0 0x2
2023-02-03 10:57:28.303 DEBUG (SyncWorker_18) [pymodbus.client.base] New Transaction state "SENDING"
2023-02-03 10:57:28.305 DEBUG (SyncWorker_18) [pymodbus.transaction] Changing transaction state from "SENDING" to "WAITING FOR REPLY"
2023-02-03 10:57:28.348 DEBUG (SyncWorker_18) [pymodbus.transaction] Changing transaction state from "WAITING FOR REPLY" to "PROCESSING REPLY"
2023-02-03 10:57:28.348 DEBUG (SyncWorker_18) [pymodbus.transaction] RECV: 0x0 0x2c 0x0 0x0 0x0 0x7 0x1 0x4 0x4 0x43 0xc6 0x77 0x91
2023-02-03 10:57:28.349 DEBUG (SyncWorker_18) [pymodbus.framer.socket_framer] Processing: 0x0 0x2c 0x0 0x0 0x0 0x7 0x1 0x4 0x4 0x43 0xc6 0x77 0x91
2023-02-03 10:57:28.349 DEBUG (SyncWorker_18) [pymodbus.factory] Factory Response[ReadInputRegistersResponse': 4]
2023-02-03 10:57:28.349 DEBUG (SyncWorker_18) [pymodbus.transaction] Adding transaction 44
2023-02-03 10:57:28.350 DEBUG (SyncWorker_18) [pymodbus.transaction] Getting transaction 44
2023-02-03 10:57:28.350 DEBUG (SyncWorker_18) [pymodbus.transaction] Changing transaction state from "PROCESSING REPLY" to "TRANSACTION_COMPLETE"
2023-02-03 10:57:28.553 DEBUG (SyncWorker_20) [pymodbus.transaction] Current transaction state - TRANSACTION_COMPLETE
2023-02-03 10:57:28.554 DEBUG (SyncWorker_20) [pymodbus.transaction] Running transaction 45
2023-02-03 10:57:28.554 DEBUG (SyncWorker_20) [pymodbus.transaction] SEND: 0x0 0x2d 0x0 0x0 0x0 0x6 0x1 0x4 0x0 0xca 0x0 0x2
2023-02-03 10:57:28.554 DEBUG (SyncWorker_20) [pymodbus.client.base] New Transaction state "SENDING"
2023-02-03 10:57:28.554 DEBUG (SyncWorker_20) [pymodbus.transaction] Changing transaction state from "SENDING" to "WAITING FOR REPLY"
2023-02-03 10:57:28.602 DEBUG (SyncWorker_20) [pymodbus.transaction] Changing transaction state from "WAITING FOR REPLY" to "PROCESSING REPLY"
2023-02-03 10:57:28.602 DEBUG (SyncWorker_20) [pymodbus.transaction] RECV: 0x0 0x2d 0x0 0x0 0x0 0x7 0x1 0x4 0x4 0x43 0xc4 0x71 0xe6
2023-02-03 10:57:28.602 DEBUG (SyncWorker_20) [pymodbus.framer.socket_framer] Processing: 0x0 0x2d 0x0 0x0 0x0 0x7 0x1 0x4 0x4 0x43 0xc4 0x71 0xe6
2023-02-03 10:57:28.602 DEBUG (SyncWorker_20) [pymodbus.factory] Factory Response[ReadInputRegistersResponse': 4]
2023-02-03 10:57:28.603 DEBUG (SyncWorker_20) [pymodbus.transaction] Adding transaction 45
2023-02-03 10:57:28.603 DEBUG (SyncWorker_20) [pymodbus.transaction] Getting transaction 45
2023-02-03 10:57:28.603 DEBUG (SyncWorker_20) [pymodbus.transaction] Changing transaction state from "PROCESSING REPLY" to "TRANSACTION_COMPLETE"
2023-02-03 10:57:28.811 DEBUG (SyncWorker_5) [pymodbus.transaction] Current transaction state - TRANSACTION_COMPLETE
2023-02-03 10:57:28.812 DEBUG (SyncWorker_5) [pymodbus.transaction] Running transaction 46
2023-02-03 10:57:28.813 DEBUG (SyncWorker_5) [pymodbus.transaction] SEND: 0x0 0x2e 0x0 0x0 0x0 0x6 0x1 0x4 0x0 0xcc 0x0 0x2
2023-02-03 10:57:28.813 DEBUG (SyncWorker_5) [pymodbus.client.base] New Transaction state "SENDING"
2023-02-03 10:57:28.813 DEBUG (SyncWorker_5) [pymodbus.transaction] Changing transaction state from "SENDING" to "WAITING FOR REPLY"
2023-02-03 10:57:28.858 DEBUG (SyncWorker_5) [pymodbus.transaction] Changing transaction state from "WAITING FOR REPLY" to "PROCESSING REPLY"
2023-02-03 10:57:28.858 DEBUG (SyncWorker_5) [pymodbus.transaction] RECV: 0x0 0x2e 0x0 0x0 0x0 0x7 0x1 0x4 0x4 0x43 0xc3 0xa3 0x24
2023-02-03 10:57:28.859 DEBUG (SyncWorker_5) [pymodbus.framer.socket_framer] Processing: 0x0 0x2e 0x0 0x0 0x0 0x7 0x1 0x4 0x4 0x43 0xc3 0xa3 0x24
2023-02-03 10:57:28.859 DEBUG (SyncWorker_5) [pymodbus.factory] Factory Response[ReadInputRegistersResponse': 4]
2023-02-03 10:57:28.859 DEBUG (SyncWorker_5) [pymodbus.transaction] Adding transaction 46
2023-02-03 10:57:28.859 DEBUG (SyncWorker_5) [pymodbus.transaction] Getting transaction 46
2023-02-03 10:57:28.860 DEBUG (SyncWorker_5) [pymodbus.transaction] Changing transaction state from "PROCESSING REPLY" to "TRANSACTION_COMPLETE"
2023-02-03 10:57:29.065 DEBUG (SyncWorker_26) [pymodbus.transaction] Current transaction state - TRANSACTION_COMPLETE
2023-02-03 10:57:29.066 DEBUG (SyncWorker_26) [pymodbus.transaction] Running transaction 47
2023-02-03 10:57:29.066 DEBUG (SyncWorker_26) [pymodbus.transaction] SEND: 0x0 0x2f 0x0 0x0 0x0 0x6 0x1 0x4 0x0 0xce 0x0 0x2
2023-02-03 10:57:29.066 DEBUG (SyncWorker_26) [pymodbus.client.base] New Transaction state "SENDING"
2023-02-03 10:57:29.066 DEBUG (SyncWorker_26) [pymodbus.transaction] Changing transaction state from "SENDING" to "WAITING FOR REPLY"
2023-02-03 10:57:29.114 DEBUG (SyncWorker_26) [pymodbus.transaction] Changing transaction state from "WAITING FOR REPLY" to "PROCESSING REPLY"
2023-02-03 10:57:29.115 DEBUG (SyncWorker_26) [pymodbus.transaction] RECV: 0x0 0x2f 0x0 0x0 0x0 0x7 0x1 0x4 0x4 0x43 0xc4 0xdb 0xb7
2023-02-03 10:57:29.115 DEBUG (SyncWorker_26) [pymodbus.framer.socket_framer] Processing: 0x0 0x2f 0x0 0x0 0x0 0x7 0x1 0x4 0x4 0x43 0xc4 0xdb 0xb7
2023-02-03 10:57:29.115 DEBUG (SyncWorker_26) [pymodbus.factory] Factory Response[ReadInputRegistersResponse': 4]
2023-02-03 10:57:29.115 DEBUG (SyncWorker_26) [pymodbus.transaction] Adding transaction 47
2023-02-03 10:57:29.115 DEBUG (SyncWorker_26) [pymodbus.transaction] Getting transaction 47
2023-02-03 10:57:29.115 DEBUG (SyncWorker_26) [pymodbus.transaction] Changing transaction state from "PROCESSING REPLY" to "TRANSACTION_COMPLETE"
2023-02-03 10:57:29.318 DEBUG (SyncWorker_27) [pymodbus.transaction] Current transaction state - TRANSACTION_COMPLETE
2023-02-03 10:57:29.319 DEBUG (SyncWorker_27) [pymodbus.transaction] Running transaction 48
2023-02-03 10:57:29.319 DEBUG (SyncWorker_27) [pymodbus.transaction] SEND: 0x0 0x30 0x0 0x0 0x0 0x6 0x1 0x4 0x0 0xe0 0x0 0x2
2023-02-03 10:57:29.319 DEBUG (SyncWorker_27) [pymodbus.client.base] New Transaction state "SENDING"
2023-02-03 10:57:29.319 DEBUG (SyncWorker_27) [pymodbus.transaction] Changing transaction state from "SENDING" to "WAITING FOR REPLY"
2023-02-03 10:57:29.366 DEBUG (SyncWorker_27) [pymodbus.transaction] Changing transaction state from "WAITING FOR REPLY" to "PROCESSING REPLY"
2023-02-03 10:57:29.366 DEBUG (SyncWorker_27) [pymodbus.transaction] RECV: 0x0 0x30 0x0 0x0 0x0 0x7 0x1 0x4 0x4 0x3c 0x9a 0x66 0xee
2023-02-03 10:57:29.366 DEBUG (SyncWorker_27) [pymodbus.framer.socket_framer] Processing: 0x0 0x30 0x0 0x0 0x0 0x7 0x1 0x4 0x4 0x3c 0x9a 0x66 0xee
2023-02-03 10:57:29.366 DEBUG (SyncWorker_27) [pymodbus.factory] Factory Response[ReadInputRegistersResponse': 4]
2023-02-03 10:57:29.366 DEBUG (SyncWorker_27) [pymodbus.transaction] Adding transaction 48
2023-02-03 10:57:29.366 DEBUG (SyncWorker_27) [pymodbus.transaction] Getting transaction 48
2023-02-03 10:57:29.367 DEBUG (SyncWorker_27) [pymodbus.transaction] Changing transaction state from "PROCESSING REPLY" to "TRANSACTION_COMPLETE"
2023-02-03 10:57:29.570 DEBUG (SyncWorker_19) [pymodbus.transaction] Current transaction state - TRANSACTION_COMPLETE
2023-02-03 10:57:29.571 DEBUG (SyncWorker_19) [pymodbus.transaction] Running transaction 49
2023-02-03 10:57:29.571 DEBUG (SyncWorker_19) [pymodbus.transaction] SEND: 0x0 0x31 0x0 0x0 0x0 0x6 0x1 0x4 0x0 0xea 0x0 0x2
2023-02-03 10:57:29.571 DEBUG (SyncWorker_19) [pymodbus.client.base] New Transaction state "SENDING"
2023-02-03 10:57:29.572 DEBUG (SyncWorker_19) [pymodbus.transaction] Changing transaction state from "SENDING" to "WAITING FOR REPLY"
2023-02-03 10:57:29.616 DEBUG (SyncWorker_19) [pymodbus.transaction] Changing transaction state from "WAITING FOR REPLY" to "PROCESSING REPLY"
2023-02-03 10:57:29.616 DEBUG (SyncWorker_19) [pymodbus.transaction] RECV: 0x0 0x31 0x0 0x0 0x0 0x7 0x1 0x4 0x4 0x40 0x29 0x9b 0x0
2023-02-03 10:57:29.617 DEBUG (SyncWorker_19) [pymodbus.framer.socket_framer] Processing: 0x0 0x31 0x0 0x0 0x0 0x7 0x1 0x4 0x4 0x40 0x29 0x9b 0x0
2023-02-03 10:57:29.617 DEBUG (SyncWorker_19) [pymodbus.factory] Factory Response[ReadInputRegistersResponse': 4]
2023-02-03 10:57:29.617 DEBUG (SyncWorker_19) [pymodbus.transaction] Adding transaction 49
2023-02-03 10:57:29.617 DEBUG (SyncWorker_19) [pymodbus.transaction] Getting transaction 49
2023-02-03 10:57:29.618 DEBUG (SyncWorker_19) [pymodbus.transaction] Changing transaction state from "PROCESSING REPLY" to "TRANSACTION_COMPLETE"
2023-02-03 10:57:29.822 DEBUG (SyncWorker_16) [pymodbus.transaction] Current transaction state - TRANSACTION_COMPLETE
2023-02-03 10:57:29.822 DEBUG (SyncWorker_16) [pymodbus.transaction] Running transaction 50
2023-02-03 10:57:29.822 DEBUG (SyncWorker_16) [pymodbus.transaction] SEND: 0x0 0x32 0x0 0x0 0x0 0x6 0x1 0x4 0x0 0xec 0x0 0x2
2023-02-03 10:57:29.823 DEBUG (SyncWorker_16) [pymodbus.client.base] New Transaction state "SENDING"
2023-02-03 10:57:29.823 DEBUG (SyncWorker_16) [pymodbus.transaction] Changing transaction state from "SENDING" to "WAITING FOR REPLY"
2023-02-03 10:57:29.866 DEBUG (SyncWorker_16) [pymodbus.transaction] Changing transaction state from "WAITING FOR REPLY" to "PROCESSING REPLY"
2023-02-03 10:57:29.867 DEBUG (SyncWorker_16) [pymodbus.transaction] RECV: 0x0 0x32 0x0 0x0 0x0 0x7 0x1 0x4 0x4 0x0 0x0 0x0 0x0
2023-02-03 10:57:29.867 DEBUG (SyncWorker_16) [pymodbus.framer.socket_framer] Processing: 0x0 0x32 0x0 0x0 0x0 0x7 0x1 0x4 0x4 0x0 0x0 0x0 0x0
2023-02-03 10:57:29.868 DEBUG (SyncWorker_16) [pymodbus.factory] Factory Response[ReadInputRegistersResponse': 4]
2023-02-03 10:57:29.868 DEBUG (SyncWorker_16) [pymodbus.transaction] Adding transaction 50
2023-02-03 10:57:29.868 DEBUG (SyncWorker_16) [pymodbus.transaction] Getting transaction 50
2023-02-03 10:57:29.868 DEBUG (SyncWorker_16) [pymodbus.transaction] Changing transaction state from "PROCESSING REPLY" to "TRANSACTION_COMPLETE"
2023-02-03 10:57:30.071 DEBUG (SyncWorker_15) [pymodbus.transaction] Current transaction state - TRANSACTION_COMPLETE
2023-02-03 10:57:30.071 DEBUG (SyncWorker_15) [pymodbus.transaction] Running transaction 51
2023-02-03 10:57:30.071 DEBUG (SyncWorker_15) [pymodbus.transaction] SEND: 0x0 0x33 0x0 0x0 0x0 0x6 0x1 0x4 0x0 0xee 0x0 0x2
2023-02-03 10:57:30.072 DEBUG (SyncWorker_15) [pymodbus.client.base] New Transaction state "SENDING"
2023-02-03 10:57:30.073 DEBUG (SyncWorker_15) [pymodbus.transaction] Changing transaction state from "SENDING" to "WAITING FOR REPLY"
2023-02-03 10:57:30.116 DEBUG (SyncWorker_15) [pymodbus.transaction] Changing transaction state from "WAITING FOR REPLY" to "PROCESSING REPLY"
2023-02-03 10:57:30.116 DEBUG (SyncWorker_15) [pymodbus.transaction] RECV: 0x0 0x33 0x0 0x0 0x0 0x7 0x1 0x4 0x4 0x0 0x0 0x0 0x0
2023-02-03 10:57:30.116 DEBUG (SyncWorker_15) [pymodbus.framer.socket_framer] Processing: 0x0 0x33 0x0 0x0 0x0 0x7 0x1 0x4 0x4 0x0 0x0 0x0 0x0
2023-02-03 10:57:30.117 DEBUG (SyncWorker_15) [pymodbus.factory] Factory Response[ReadInputRegistersResponse': 4]
2023-02-03 10:57:30.117 DEBUG (SyncWorker_15) [pymodbus.transaction] Adding transaction 51
2023-02-03 10:57:30.117 DEBUG (SyncWorker_15) [pymodbus.transaction] Getting transaction 51
2023-02-03 10:57:30.117 DEBUG (SyncWorker_15) [pymodbus.transaction] Changing transaction state from "PROCESSING REPLY" to "TRANSACTION_COMPLETE"
2023-02-03 10:57:30.321 DEBUG (SyncWorker_9) [pymodbus.transaction] Current transaction state - TRANSACTION_COMPLETE
2023-02-03 10:57:30.321 DEBUG (SyncWorker_9) [pymodbus.transaction] Running transaction 52
2023-02-03 10:57:30.321 DEBUG (SyncWorker_9) [pymodbus.transaction] SEND: 0x0 0x34 0x0 0x0 0x0 0x6 0x1 0x4 0x0 0xf0 0x0 0x2
2023-02-03 10:57:30.322 DEBUG (SyncWorker_9) [pymodbus.client.base] New Transaction state "SENDING"
2023-02-03 10:57:30.322 DEBUG (SyncWorker_9) [pymodbus.transaction] Changing transaction state from "SENDING" to "WAITING FOR REPLY"
2023-02-03 10:57:30.367 DEBUG (SyncWorker_9) [pymodbus.transaction] Changing transaction state from "WAITING FOR REPLY" to "PROCESSING REPLY"
2023-02-03 10:57:30.367 DEBUG (SyncWorker_9) [pymodbus.transaction] RECV: 0x0 0x34 0x0 0x0 0x0 0x7 0x1 0x4 0x4 0x42 0x49 0x9e 0x53
2023-02-03 10:57:30.368 DEBUG (SyncWorker_9) [pymodbus.framer.socket_framer] Processing: 0x0 0x34 0x0 0x0 0x0 0x7 0x1 0x4 0x4 0x42 0x49 0x9e 0x53
2023-02-03 10:57:30.368 DEBUG (SyncWorker_9) [pymodbus.factory] Factory Response[ReadInputRegistersResponse': 4]
2023-02-03 10:57:30.368 DEBUG (SyncWorker_9) [pymodbus.transaction] Adding transaction 52
2023-02-03 10:57:30.369 DEBUG (SyncWorker_9) [pymodbus.transaction] Getting transaction 52
2023-02-03 10:57:30.369 DEBUG (SyncWorker_9) [pymodbus.transaction] Changing transaction state from "PROCESSING REPLY" to "TRANSACTION_COMPLETE"
2023-02-03 10:57:30.579 DEBUG (SyncWorker_12) [pymodbus.transaction] Current transaction state - TRANSACTION_COMPLETE
2023-02-03 10:57:30.580 DEBUG (SyncWorker_12) [pymodbus.transaction] Running transaction 53
2023-02-03 10:57:30.580 DEBUG (SyncWorker_12) [pymodbus.transaction] SEND: 0x0 0x35 0x0 0x0 0x0 0x6 0x1 0x4 0x0 0xf2 0x0 0x2
2023-02-03 10:57:30.580 DEBUG (SyncWorker_12) [pymodbus.client.base] New Transaction state "SENDING"
2023-02-03 10:57:30.580 DEBUG (SyncWorker_12) [pymodbus.transaction] Changing transaction state from "SENDING" to "WAITING FOR REPLY"
2023-02-03 10:57:30.625 DEBUG (SyncWorker_12) [pymodbus.transaction] Changing transaction state from "WAITING FOR REPLY" to "PROCESSING REPLY"
2023-02-03 10:57:30.625 DEBUG (SyncWorker_12) [pymodbus.transaction] RECV: 0x0 0x35 0x0 0x0 0x0 0x7 0x1 0x4 0x4 0x42 0x4b 0xf2 0xa6
2023-02-03 10:57:30.625 DEBUG (SyncWorker_12) [pymodbus.framer.socket_framer] Processing: 0x0 0x35 0x0 0x0 0x0 0x7 0x1 0x4 0x4 0x42 0x4b 0xf2 0xa6
2023-02-03 10:57:30.625 DEBUG (SyncWorker_12) [pymodbus.factory] Factory Response[ReadInputRegistersResponse': 4]
2023-02-03 10:57:30.626 DEBUG (SyncWorker_12) [pymodbus.transaction] Adding transaction 53
2023-02-03 10:57:30.626 DEBUG (SyncWorker_12) [pymodbus.transaction] Getting transaction 53
2023-02-03 10:57:30.626 DEBUG (SyncWorker_12) [pymodbus.transaction] Changing transaction state from "PROCESSING REPLY" to "TRANSACTION_COMPLETE"
2023-02-03 10:57:30.829 DEBUG (SyncWorker_7) [pymodbus.transaction] Current transaction state - TRANSACTION_COMPLETE
2023-02-03 10:57:30.830 DEBUG (SyncWorker_7) [pymodbus.transaction] Running transaction 54
2023-02-03 10:57:30.830 DEBUG (SyncWorker_7) [pymodbus.transaction] SEND: 0x0 0x36 0x0 0x0 0x0 0x6 0x1 0x4 0x0 0xf4 0x0 0x2
2023-02-03 10:57:30.830 DEBUG (SyncWorker_7) [pymodbus.client.base] New Transaction state "SENDING"
2023-02-03 10:57:30.831 DEBUG (SyncWorker_7) [pymodbus.transaction] Changing transaction state from "SENDING" to "WAITING FOR REPLY"
2023-02-03 10:57:30.875 DEBUG (SyncWorker_7) [pymodbus.transaction] Changing transaction state from "WAITING FOR REPLY" to "PROCESSING REPLY"
2023-02-03 10:57:30.875 DEBUG (SyncWorker_7) [pymodbus.transaction] RECV: 0x0 0x36 0x0 0x0 0x0 0x7 0x1 0x4 0x4 0x42 0x46 0xea 0x96
2023-02-03 10:57:30.876 DEBUG (SyncWorker_7) [pymodbus.framer.socket_framer] Processing: 0x0 0x36 0x0 0x0 0x0 0x7 0x1 0x4 0x4 0x42 0x46 0xea 0x96
2023-02-03 10:57:30.876 DEBUG (SyncWorker_7) [pymodbus.factory] Factory Response[ReadInputRegistersResponse': 4]
2023-02-03 10:57:30.876 DEBUG (SyncWorker_7) [pymodbus.transaction] Adding transaction 54
2023-02-03 10:57:30.876 DEBUG (SyncWorker_7) [pymodbus.transaction] Getting transaction 54
2023-02-03 10:57:30.877 DEBUG (SyncWorker_7) [pymodbus.transaction] Changing transaction state from "PROCESSING REPLY" to "TRANSACTION_COMPLETE"
2023-02-03 10:57:31.080 DEBUG (SyncWorker_11) [pymodbus.transaction] Current transaction state - TRANSACTION_COMPLETE
2023-02-03 10:57:31.081 DEBUG (SyncWorker_11) [pymodbus.transaction] Running transaction 55
2023-02-03 10:57:31.081 DEBUG (SyncWorker_11) [pymodbus.transaction] SEND: 0x0 0x37 0x0 0x0 0x0 0x6 0x1 0x4 0x0 0xf8 0x0 0x2
2023-02-03 10:57:31.081 DEBUG (SyncWorker_11) [pymodbus.client.base] New Transaction state "SENDING"
2023-02-03 10:57:31.082 DEBUG (SyncWorker_11) [pymodbus.transaction] Changing transaction state from "SENDING" to "WAITING FOR REPLY"
2023-02-03 10:57:31.150 DEBUG (SyncWorker_11) [pymodbus.transaction] Changing transaction state from "WAITING FOR REPLY" to "PROCESSING REPLY"
2023-02-03 10:57:31.151 DEBUG (SyncWorker_11) [pymodbus.transaction] RECV: 0x0 0x37 0x0 0x0 0x0 0x7 0x1 0x4 0x4 0x3f 0xc0 0xb6 0x2a
2023-02-03 10:57:31.151 DEBUG (SyncWorker_11) [pymodbus.framer.socket_framer] Processing: 0x0 0x37 0x0 0x0 0x0 0x7 0x1 0x4 0x4 0x3f 0xc0 0xb6 0x2a
2023-02-03 10:57:31.152 DEBUG (SyncWorker_11) [pymodbus.factory] Factory Response[ReadInputRegistersResponse': 4]
2023-02-03 10:57:31.152 DEBUG (SyncWorker_11) [pymodbus.transaction] Adding transaction 55
2023-02-03 10:57:31.152 DEBUG (SyncWorker_11) [pymodbus.transaction] Getting transaction 55
2023-02-03 10:57:31.152 DEBUG (SyncWorker_11) [pymodbus.transaction] Changing transaction state from "PROCESSING REPLY" to "TRANSACTION_COMPLETE"
2023-02-03 10:57:31.361 DEBUG (SyncWorker_21) [pymodbus.transaction] Current transaction state - TRANSACTION_COMPLETE
2023-02-03 10:57:31.361 DEBUG (SyncWorker_21) [pymodbus.transaction] Running transaction 56
2023-02-03 10:57:31.361 DEBUG (SyncWorker_21) [pymodbus.transaction] SEND: 0x0 0x38 0x0 0x0 0x0 0x6 0x1 0x4 0x0 0xfa 0x0 0x2
2023-02-03 10:57:31.362 DEBUG (SyncWorker_21) [pymodbus.client.base] New Transaction state "SENDING"
2023-02-03 10:57:31.362 DEBUG (SyncWorker_21) [pymodbus.transaction] Changing transaction state from "SENDING" to "WAITING FOR REPLY"
2023-02-03 10:57:31.411 DEBUG (SyncWorker_21) [pymodbus.transaction] Changing transaction state from "WAITING FOR REPLY" to "PROCESSING REPLY"
2023-02-03 10:57:31.412 DEBUG (SyncWorker_21) [pymodbus.transaction] RECV: 0x0 0x38 0x0 0x0 0x0 0x7 0x1 0x4 0x4 0x42 0x3a 0x5b 0xaf
2023-02-03 10:57:31.412 DEBUG (SyncWorker_21) [pymodbus.framer.socket_framer] Processing: 0x0 0x38 0x0 0x0 0x0 0x7 0x1 0x4 0x4 0x42 0x3a 0x5b 0xaf
2023-02-03 10:57:31.412 DEBUG (SyncWorker_21) [pymodbus.factory] Factory Response[ReadInputRegistersResponse': 4]
2023-02-03 10:57:31.412 DEBUG (SyncWorker_21) [pymodbus.transaction] Adding transaction 56
2023-02-03 10:57:31.413 DEBUG (SyncWorker_21) [pymodbus.transaction] Getting transaction 56
2023-02-03 10:57:31.413 DEBUG (SyncWorker_21) [pymodbus.transaction] Changing transaction state from "PROCESSING REPLY" to "TRANSACTION_COMPLETE"
2023-02-03 10:57:31.618 DEBUG (SyncWorker_24) [pymodbus.transaction] Current transaction state - TRANSACTION_COMPLETE
2023-02-03 10:57:31.618 DEBUG (SyncWorker_24) [pymodbus.transaction] Running transaction 57
2023-02-03 10:57:31.618 DEBUG (SyncWorker_24) [pymodbus.transaction] SEND: 0x0 0x39 0x0 0x0 0x0 0x6 0x1 0x4 0x1 0x2 0x0 0x2
2023-02-03 10:57:31.619 DEBUG (SyncWorker_24) [pymodbus.client.base] New Transaction state "SENDING"
2023-02-03 10:57:31.620 DEBUG (SyncWorker_24) [pymodbus.transaction] Changing transaction state from "SENDING" to "WAITING FOR REPLY"
2023-02-03 10:57:31.661 DEBUG (SyncWorker_24) [pymodbus.transaction] Changing transaction state from "WAITING FOR REPLY" to "PROCESSING REPLY"
2023-02-03 10:57:31.661 DEBUG (SyncWorker_24) [pymodbus.transaction] RECV: 0x0 0x39 0x0 0x0 0x0 0x7 0x1 0x4 0x4 0x3f 0x25 0xe6 0x8e
2023-02-03 10:57:31.661 DEBUG (SyncWorker_24) [pymodbus.framer.socket_framer] Processing: 0x0 0x39 0x0 0x0 0x0 0x7 0x1 0x4 0x4 0x3f 0x25 0xe6 0x8e
2023-02-03 10:57:31.662 DEBUG (SyncWorker_24) [pymodbus.factory] Factory Response[ReadInputRegistersResponse': 4]
2023-02-03 10:57:31.662 DEBUG (SyncWorker_24) [pymodbus.transaction] Adding transaction 57
2023-02-03 10:57:31.662 DEBUG (SyncWorker_24) [pymodbus.transaction] Getting transaction 57
2023-02-03 10:57:31.662 DEBUG (SyncWorker_24) [pymodbus.transaction] Changing transaction state from "PROCESSING REPLY" to "TRANSACTION_COMPLETE"
2023-02-03 10:57:31.866 DEBUG (SyncWorker_17) [pymodbus.transaction] Current transaction state - TRANSACTION_COMPLETE
2023-02-03 10:57:31.866 DEBUG (SyncWorker_17) [pymodbus.transaction] Running transaction 58
2023-02-03 10:57:31.866 DEBUG (SyncWorker_17) [pymodbus.transaction] SEND: 0x0 0x3a 0x0 0x0 0x0 0x6 0x1 0x4 0x1 0x4 0x0 0x2
2023-02-03 10:57:31.867 DEBUG (SyncWorker_17) [pymodbus.client.base] New Transaction state "SENDING"
2023-02-03 10:57:31.867 DEBUG (SyncWorker_17) [pymodbus.transaction] Changing transaction state from "SENDING" to "WAITING FOR REPLY"
2023-02-03 10:57:31.911 DEBUG (SyncWorker_17) [pymodbus.transaction] Changing transaction state from "WAITING FOR REPLY" to "PROCESSING REPLY"
2023-02-03 10:57:31.912 DEBUG (SyncWorker_17) [pymodbus.transaction] RECV: 0x0 0x3a 0x0 0x0 0x0 0x7 0x1 0x4 0x4 0x3f 0x20 0xed 0xbd
2023-02-03 10:57:31.912 DEBUG (SyncWorker_17) [pymodbus.framer.socket_framer] Processing: 0x0 0x3a 0x0 0x0 0x0 0x7 0x1 0x4 0x4 0x3f 0x20 0xed 0xbd
2023-02-03 10:57:31.912 DEBUG (SyncWorker_17) [pymodbus.factory] Factory Response[ReadInputRegistersResponse': 4]
2023-02-03 10:57:31.912 DEBUG (SyncWorker_17) [pymodbus.transaction] Adding transaction 58
2023-02-03 10:57:31.912 DEBUG (SyncWorker_17) [pymodbus.transaction] Getting transaction 58
2023-02-03 10:57:31.913 DEBUG (SyncWorker_17) [pymodbus.transaction] Changing transaction state from "PROCESSING REPLY" to "TRANSACTION_COMPLETE"
2023-02-03 10:57:32.116 DEBUG (SyncWorker_3) [pymodbus.transaction] Current transaction state - TRANSACTION_COMPLETE
2023-02-03 10:57:32.116 DEBUG (SyncWorker_3) [pymodbus.transaction] Running transaction 59
2023-02-03 10:57:32.117 DEBUG (SyncWorker_3) [pymodbus.transaction] SEND: 0x0 0x3b 0x0 0x0 0x0 0x6 0x1 0x4 0x1 0x6 0x0 0x2
2023-02-03 10:57:32.117 DEBUG (SyncWorker_3) [pymodbus.client.base] New Transaction state "SENDING"
2023-02-03 10:57:32.119 DEBUG (SyncWorker_3) [pymodbus.transaction] Changing transaction state from "SENDING" to "WAITING FOR REPLY"
2023-02-03 10:57:32.160 DEBUG (SyncWorker_3) [pymodbus.transaction] Changing transaction state from "WAITING FOR REPLY" to "PROCESSING REPLY"
2023-02-03 10:57:32.161 DEBUG (SyncWorker_3) [pymodbus.transaction] RECV: 0x0 0x3b 0x0 0x0 0x0 0x7 0x1 0x4 0x4 0x3f 0x24 0xf6 0x36
2023-02-03 10:57:32.161 DEBUG (SyncWorker_3) [pymodbus.framer.socket_framer] Processing: 0x0 0x3b 0x0 0x0 0x0 0x7 0x1 0x4 0x4 0x3f 0x24 0xf6 0x36
2023-02-03 10:57:32.161 DEBUG (SyncWorker_3) [pymodbus.factory] Factory Response[ReadInputRegistersResponse': 4]
2023-02-03 10:57:32.162 DEBUG (SyncWorker_3) [pymodbus.transaction] Adding transaction 59
2023-02-03 10:57:32.162 DEBUG (SyncWorker_3) [pymodbus.transaction] Getting transaction 59
2023-02-03 10:57:32.162 DEBUG (SyncWorker_3) [pymodbus.transaction] Changing transaction state from "PROCESSING REPLY" to "TRANSACTION_COMPLETE"
2023-02-03 10:57:32.369 DEBUG (SyncWorker_4) [pymodbus.transaction] Current transaction state - TRANSACTION_COMPLETE
2023-02-03 10:57:32.370 DEBUG (SyncWorker_4) [pymodbus.transaction] Running transaction 60
2023-02-03 10:57:32.370 DEBUG (SyncWorker_4) [pymodbus.transaction] SEND: 0x0 0x3c 0x0 0x0 0x0 0x6 0x1 0x4 0x1 0x8 0x0 0x2
2023-02-03 10:57:32.370 DEBUG (SyncWorker_4) [pymodbus.client.base] New Transaction state "SENDING"
2023-02-03 10:57:32.373 DEBUG (SyncWorker_4) [pymodbus.transaction] Changing transaction state from "SENDING" to "WAITING FOR REPLY"
2023-02-03 10:57:32.415 DEBUG (SyncWorker_4) [pymodbus.transaction] Changing transaction state from "WAITING FOR REPLY" to "PROCESSING REPLY"
2023-02-03 10:57:32.415 DEBUG (SyncWorker_4) [pymodbus.transaction] RECV: 0x0 0x3c 0x0 0x0 0x0 0x7 0x1 0x4 0x4 0x41 0x94 0x3c 0x42
2023-02-03 10:57:32.416 DEBUG (SyncWorker_4) [pymodbus.framer.socket_framer] Processing: 0x0 0x3c 0x0 0x0 0x0 0x7 0x1 0x4 0x4 0x41 0x94 0x3c 0x42
2023-02-03 10:57:32.416 DEBUG (SyncWorker_4) [pymodbus.factory] Factory Response[ReadInputRegistersResponse': 4]
2023-02-03 10:57:32.416 DEBUG (SyncWorker_4) [pymodbus.transaction] Adding transaction 60
2023-02-03 10:57:32.417 DEBUG (SyncWorker_4) [pymodbus.transaction] Getting transaction 60
2023-02-03 10:57:32.417 DEBUG (SyncWorker_4) [pymodbus.transaction] Changing transaction state from "PROCESSING REPLY" to "TRANSACTION_COMPLETE"
2023-02-03 10:57:32.619 DEBUG (SyncWorker_2) [pymodbus.transaction] Current transaction state - TRANSACTION_COMPLETE
2023-02-03 10:57:32.620 DEBUG (SyncWorker_2) [pymodbus.transaction] Running transaction 61
2023-02-03 10:57:32.620 DEBUG (SyncWorker_2) [pymodbus.transaction] SEND: 0x0 0x3d 0x0 0x0 0x0 0x6 0x1 0x4 0x1 0xa 0x0 0x2
2023-02-03 10:57:32.620 DEBUG (SyncWorker_2) [pymodbus.client.base] New Transaction state "SENDING"
2023-02-03 10:57:32.621 DEBUG (SyncWorker_2) [pymodbus.transaction] Changing transaction state from "SENDING" to "WAITING FOR REPLY"
2023-02-03 10:57:32.664 DEBUG (SyncWorker_2) [pymodbus.transaction] Changing transaction state from "WAITING FOR REPLY" to "PROCESSING REPLY"
2023-02-03 10:57:32.664 DEBUG (SyncWorker_2) [pymodbus.transaction] RECV: 0x0 0x3d 0x0 0x0 0x0 0x7 0x1 0x4 0x4 0x41 0x92 0x82 0x23
2023-02-03 10:57:32.665 DEBUG (SyncWorker_2) [pymodbus.framer.socket_framer] Processing: 0x0 0x3d 0x0 0x0 0x0 0x7 0x1 0x4 0x4 0x41 0x92 0x82 0x23
2023-02-03 10:57:32.665 DEBUG (SyncWorker_2) [pymodbus.factory] Factory Response[ReadInputRegistersResponse': 4]
2023-02-03 10:57:32.665 DEBUG (SyncWorker_2) [pymodbus.transaction] Adding transaction 61
2023-02-03 10:57:32.665 DEBUG (SyncWorker_2) [pymodbus.transaction] Getting transaction 61
2023-02-03 10:57:32.666 DEBUG (SyncWorker_2) [pymodbus.transaction] Changing transaction state from "PROCESSING REPLY" to "TRANSACTION_COMPLETE"
2023-02-03 10:57:32.868 DEBUG (SyncWorker_0) [pymodbus.transaction] Current transaction state - TRANSACTION_COMPLETE
2023-02-03 10:57:32.869 DEBUG (SyncWorker_0) [pymodbus.transaction] Running transaction 62
2023-02-03 10:57:32.869 DEBUG (SyncWorker_0) [pymodbus.transaction] SEND: 0x0 0x3e 0x0 0x0 0x0 0x6 0x1 0x4 0x1 0xc 0x0 0x2
2023-02-03 10:57:32.869 DEBUG (SyncWorker_0) [pymodbus.client.base] New Transaction state "SENDING"
2023-02-03 10:57:32.870 DEBUG (SyncWorker_0) [pymodbus.transaction] Changing transaction state from "SENDING" to "WAITING FOR REPLY"
2023-02-03 10:57:32.912 DEBUG (SyncWorker_0) [pymodbus.transaction] Changing transaction state from "WAITING FOR REPLY" to "PROCESSING REPLY"
2023-02-03 10:57:32.912 DEBUG (SyncWorker_0) [pymodbus.transaction] RECV: 0x0 0x3e 0x0 0x0 0x0 0x7 0x1 0x4 0x4 0x41 0x92 0xc9 0xe1
2023-02-03 10:57:32.912 DEBUG (SyncWorker_0) [pymodbus.framer.socket_framer] Processing: 0x0 0x3e 0x0 0x0 0x0 0x7 0x1 0x4 0x4 0x41 0x92 0xc9 0xe1
2023-02-03 10:57:32.913 DEBUG (SyncWorker_0) [pymodbus.factory] Factory Response[ReadInputRegistersResponse': 4]
2023-02-03 10:57:32.913 DEBUG (SyncWorker_0) [pymodbus.transaction] Adding transaction 62
2023-02-03 10:57:32.913 DEBUG (SyncWorker_0) [pymodbus.transaction] Getting transaction 62
2023-02-03 10:57:32.913 DEBUG (SyncWorker_0) [pymodbus.transaction] Changing transaction state from "PROCESSING REPLY" to "TRANSACTION_COMPLETE"
2023-02-03 10:57:33.116 DEBUG (SyncWorker_13) [pymodbus.transaction] Current transaction state - TRANSACTION_COMPLETE
2023-02-03 10:57:33.116 DEBUG (SyncWorker_13) [pymodbus.transaction] Running transaction 63
2023-02-03 10:57:33.116 DEBUG (SyncWorker_13) [pymodbus.transaction] SEND: 0x0 0x3f 0x0 0x0 0x0 0x6 0x1 0x4 0x1 0x4e 0x0 0x2
2023-02-03 10:57:33.116 DEBUG (SyncWorker_13) [pymodbus.client.base] New Transaction state "SENDING"
2023-02-03 10:57:33.117 DEBUG (SyncWorker_13) [pymodbus.transaction] Changing transaction state from "SENDING" to "WAITING FOR REPLY"
2023-02-03 10:57:33.160 DEBUG (SyncWorker_13) [pymodbus.transaction] Changing transaction state from "WAITING FOR REPLY" to "PROCESSING REPLY"
2023-02-03 10:57:33.161 DEBUG (SyncWorker_13) [pymodbus.transaction] RECV: 0x0 0x3f 0x0 0x0 0x0 0x7 0x1 0x4 0x4 0x0 0x0 0x0 0x0
2023-02-03 10:57:33.161 DEBUG (SyncWorker_13) [pymodbus.framer.socket_framer] Processing: 0x0 0x3f 0x0 0x0 0x0 0x7 0x1 0x4 0x4 0x0 0x0 0x0 0x0
2023-02-03 10:57:33.161 DEBUG (SyncWorker_13) [pymodbus.factory] Factory Response[ReadInputRegistersResponse': 4]
2023-02-03 10:57:33.161 DEBUG (SyncWorker_13) [pymodbus.transaction] Adding transaction 63
2023-02-03 10:57:33.162 DEBUG (SyncWorker_13) [pymodbus.transaction] Getting transaction 63
2023-02-03 10:57:33.162 DEBUG (SyncWorker_13) [pymodbus.transaction] Changing transaction state from "PROCESSING REPLY" to "TRANSACTION_COMPLETE"
2023-02-03 10:57:33.366 DEBUG (SyncWorker_8) [pymodbus.transaction] Current transaction state - TRANSACTION_COMPLETE
2023-02-03 10:57:33.366 DEBUG (SyncWorker_8) [pymodbus.transaction] Running transaction 64
2023-02-03 10:57:33.366 DEBUG (SyncWorker_8) [pymodbus.transaction] SEND: 0x0 0x40 0x0 0x0 0x0 0x6 0x1 0x4 0x1 0x50 0x0 0x2
2023-02-03 10:57:33.367 DEBUG (SyncWorker_8) [pymodbus.client.base] New Transaction state "SENDING"
2023-02-03 10:57:33.368 DEBUG (SyncWorker_8) [pymodbus.transaction] Changing transaction state from "SENDING" to "WAITING FOR REPLY"
2023-02-03 10:57:33.410 DEBUG (SyncWorker_8) [pymodbus.transaction] Changing transaction state from "WAITING FOR REPLY" to "PROCESSING REPLY"
2023-02-03 10:57:33.411 DEBUG (SyncWorker_8) [pymodbus.transaction] RECV: 0x0 0x40 0x0 0x0 0x0 0x7 0x1 0x4 0x4 0x0 0x0 0x0 0x0
2023-02-03 10:57:33.411 DEBUG (SyncWorker_8) [pymodbus.framer.socket_framer] Processing: 0x0 0x40 0x0 0x0 0x0 0x7 0x1 0x4 0x4 0x0 0x0 0x0 0x0
2023-02-03 10:57:33.411 DEBUG (SyncWorker_8) [pymodbus.factory] Factory Response[ReadInputRegistersResponse': 4]
2023-02-03 10:57:33.412 DEBUG (SyncWorker_8) [pymodbus.transaction] Adding transaction 64
2023-02-03 10:57:33.412 DEBUG (SyncWorker_8) [pymodbus.transaction] Getting transaction 64
2023-02-03 10:57:33.412 DEBUG (SyncWorker_8) [pymodbus.transaction] Changing transaction state from "PROCESSING REPLY" to "TRANSACTION_COMPLETE"
2023-02-03 10:57:33.616 DEBUG (SyncWorker_6) [pymodbus.transaction] Current transaction state - TRANSACTION_COMPLETE
2023-02-03 10:57:33.616 DEBUG (SyncWorker_6) [pymodbus.transaction] Running transaction 65
2023-02-03 10:57:33.616 DEBUG (SyncWorker_6) [pymodbus.transaction] SEND: 0x0 0x41 0x0 0x0 0x0 0x6 0x1 0x4 0x1 0x52 0x0 0x2
2023-02-03 10:57:33.616 DEBUG (SyncWorker_6) [pymodbus.client.base] New Transaction state "SENDING"
2023-02-03 10:57:33.619 DEBUG (SyncWorker_6) [pymodbus.transaction] Changing transaction state from "SENDING" to "WAITING FOR REPLY"
2023-02-03 10:57:33.660 DEBUG (SyncWorker_6) [pymodbus.transaction] Changing transaction state from "WAITING FOR REPLY" to "PROCESSING REPLY"
2023-02-03 10:57:33.660 DEBUG (SyncWorker_6) [pymodbus.transaction] RECV: 0x0 0x41 0x0 0x0 0x0 0x7 0x1 0x4 0x4 0x0 0x0 0x0 0x0
2023-02-03 10:57:33.661 DEBUG (SyncWorker_6) [pymodbus.framer.socket_framer] Processing: 0x0 0x41 0x0 0x0 0x0 0x7 0x1 0x4 0x4 0x0 0x0 0x0 0x0
2023-02-03 10:57:33.661 DEBUG (SyncWorker_6) [pymodbus.factory] Factory Response[ReadInputRegistersResponse': 4]
2023-02-03 10:57:33.661 DEBUG (SyncWorker_6) [pymodbus.transaction] Adding transaction 65
2023-02-03 10:57:33.661 DEBUG (SyncWorker_6) [pymodbus.transaction] Getting transaction 65
2023-02-03 10:57:33.662 DEBUG (SyncWorker_6) [pymodbus.transaction] Changing transaction state from "PROCESSING REPLY" to "TRANSACTION_COMPLETE"
2023-02-03 10:57:33.866 DEBUG (SyncWorker_22) [pymodbus.transaction] Current transaction state - TRANSACTION_COMPLETE
2023-02-03 10:57:33.866 DEBUG (SyncWorker_22) [pymodbus.transaction] Running transaction 66
2023-02-03 10:57:33.867 DEBUG (SyncWorker_22) [pymodbus.transaction] SEND: 0x0 0x42 0x0 0x0 0x0 0x6 0x1 0x4 0x1 0x54 0x0 0x2
2023-02-03 10:57:33.867 DEBUG (SyncWorker_22) [pymodbus.client.base] New Transaction state "SENDING"
2023-02-03 10:57:33.868 DEBUG (SyncWorker_22) [pymodbus.transaction] Changing transaction state from "SENDING" to "WAITING FOR REPLY"
2023-02-03 10:57:33.912 DEBUG (SyncWorker_22) [pymodbus.transaction] Changing transaction state from "WAITING FOR REPLY" to "PROCESSING REPLY"
2023-02-03 10:57:33.912 DEBUG (SyncWorker_22) [pymodbus.transaction] RECV: 0x0 0x42 0x0 0x0 0x0 0x7 0x1 0x4 0x4 0x0 0x0 0x0 0x0
2023-02-03 10:57:33.913 DEBUG (SyncWorker_22) [pymodbus.framer.socket_framer] Processing: 0x0 0x42 0x0 0x0 0x0 0x7 0x1 0x4 0x4 0x0 0x0 0x0 0x0
2023-02-03 10:57:33.913 DEBUG (SyncWorker_22) [pymodbus.factory] Factory Response[ReadInputRegistersResponse': 4]
2023-02-03 10:57:33.913 DEBUG (SyncWorker_22) [pymodbus.transaction] Adding transaction 66
2023-02-03 10:57:33.913 DEBUG (SyncWorker_22) [pymodbus.transaction] Getting transaction 66
2023-02-03 10:57:33.914 DEBUG (SyncWorker_22) [pymodbus.transaction] Changing transaction state from "PROCESSING REPLY" to "TRANSACTION_COMPLETE"
2023-02-03 10:57:34.117 DEBUG (SyncWorker_10) [pymodbus.transaction] Current transaction state - TRANSACTION_COMPLETE
2023-02-03 10:57:34.117 DEBUG (SyncWorker_10) [pymodbus.transaction] Running transaction 67
2023-02-03 10:57:34.118 DEBUG (SyncWorker_10) [pymodbus.transaction] SEND: 0x0 0x43 0x0 0x0 0x0 0x6 0x1 0x4 0x1 0x58 0x0 0x2
2023-02-03 10:57:34.118 DEBUG (SyncWorker_10) [pymodbus.client.base] New Transaction state "SENDING"
2023-02-03 10:57:34.119 DEBUG (SyncWorker_10) [pymodbus.transaction] Changing transaction state from "SENDING" to "WAITING FOR REPLY"
2023-02-03 10:57:34.164 DEBUG (SyncWorker_10) [pymodbus.transaction] Changing transaction state from "WAITING FOR REPLY" to "PROCESSING REPLY"
2023-02-03 10:57:34.164 DEBUG (SyncWorker_10) [pymodbus.transaction] RECV: 0x0 0x43 0x0 0x0 0x0 0x7 0x1 0x4 0x4 0x43 0xed 0x1a 0x5e
2023-02-03 10:57:34.164 DEBUG (SyncWorker_10) [pymodbus.framer.socket_framer] Processing: 0x0 0x43 0x0 0x0 0x0 0x7 0x1 0x4 0x4 0x43 0xed 0x1a 0x5e
2023-02-03 10:57:34.165 DEBUG (SyncWorker_10) [pymodbus.factory] Factory Response[ReadInputRegistersResponse': 4]
2023-02-03 10:57:34.165 DEBUG (SyncWorker_10) [pymodbus.transaction] Adding transaction 67
2023-02-03 10:57:34.165 DEBUG (SyncWorker_10) [pymodbus.transaction] Getting transaction 67
2023-02-03 10:57:34.165 DEBUG (SyncWorker_10) [pymodbus.transaction] Changing transaction state from "PROCESSING REPLY" to "TRANSACTION_COMPLETE"
2023-02-03 10:57:34.369 DEBUG (SyncWorker_23) [pymodbus.transaction] Current transaction state - TRANSACTION_COMPLETE
2023-02-03 10:57:34.369 DEBUG (SyncWorker_23) [pymodbus.transaction] Running transaction 68
2023-02-03 10:57:34.369 DEBUG (SyncWorker_23) [pymodbus.transaction] SEND: 0x0 0x44 0x0 0x0 0x0 0x6 0x1 0x4 0x1 0x5a 0x0 0x2
2023-02-03 10:57:34.370 DEBUG (SyncWorker_23) [pymodbus.client.base] New Transaction state "SENDING"
2023-02-03 10:57:34.370 DEBUG (SyncWorker_23) [pymodbus.transaction] Changing transaction state from "SENDING" to "WAITING FOR REPLY"
2023-02-03 10:57:34.414 DEBUG (SyncWorker_23) [pymodbus.transaction] Changing transaction state from "WAITING FOR REPLY" to "PROCESSING REPLY"
2023-02-03 10:57:34.415 DEBUG (SyncWorker_23) [pymodbus.transaction] RECV: 0x0 0x44 0x0 0x0 0x0 0x7 0x1 0x4 0x4 0x45 0xb5 0x8f 0xa6
2023-02-03 10:57:34.415 DEBUG (SyncWorker_23) [pymodbus.framer.socket_framer] Processing: 0x0 0x44 0x0 0x0 0x0 0x7 0x1 0x4 0x4 0x45 0xb5 0x8f 0xa6
2023-02-03 10:57:34.415 DEBUG (SyncWorker_23) [pymodbus.factory] Factory Response[ReadInputRegistersResponse': 4]
2023-02-03 10:57:34.416 DEBUG (SyncWorker_23) [pymodbus.transaction] Adding transaction 68
2023-02-03 10:57:34.416 DEBUG (SyncWorker_23) [pymodbus.transaction] Getting transaction 68
2023-02-03 10:57:34.416 DEBUG (SyncWorker_23) [pymodbus.transaction] Changing transaction state from "PROCESSING REPLY" to "TRANSACTION_COMPLETE"
2023-02-03 10:57:34.621 DEBUG (SyncWorker_14) [pymodbus.transaction] Current transaction state - TRANSACTION_COMPLETE
2023-02-03 10:57:34.621 DEBUG (SyncWorker_14) [pymodbus.transaction] Running transaction 69
2023-02-03 10:57:34.622 DEBUG (SyncWorker_14) [pymodbus.transaction] SEND: 0x0 0x45 0x0 0x0 0x0 0x6 0x1 0x4 0x1 0x5c 0x0 0x2
2023-02-03 10:57:34.622 DEBUG (SyncWorker_14) [pymodbus.client.base] New Transaction state "SENDING"
2023-02-03 10:57:34.623 DEBUG (SyncWorker_14) [pymodbus.transaction] Changing transaction state from "SENDING" to "WAITING FOR REPLY"
2023-02-03 10:57:34.668 DEBUG (SyncWorker_14) [pymodbus.transaction] Changing transaction state from "WAITING FOR REPLY" to "PROCESSING REPLY"
2023-02-03 10:57:34.668 DEBUG (SyncWorker_14) [pymodbus.transaction] RECV: 0x0 0x45 0x0 0x0 0x0 0x7 0x1 0x4 0x4 0x45 0xb5 0x4b 0x12
2023-02-03 10:57:34.668 DEBUG (SyncWorker_14) [pymodbus.framer.socket_framer] Processing: 0x0 0x45 0x0 0x0 0x0 0x7 0x1 0x4 0x4 0x45 0xb5 0x4b 0x12
2023-02-03 10:57:34.668 DEBUG (SyncWorker_14) [pymodbus.factory] Factory Response[ReadInputRegistersResponse': 4]
2023-02-03 10:57:34.669 DEBUG (SyncWorker_14) [pymodbus.transaction] Adding transaction 69
2023-02-03 10:57:34.669 DEBUG (SyncWorker_14) [pymodbus.transaction] Getting transaction 69
2023-02-03 10:57:34.669 DEBUG (SyncWorker_14) [pymodbus.transaction] Changing transaction state from "PROCESSING REPLY" to "TRANSACTION_COMPLETE"
2023-02-03 10:57:34.873 DEBUG (SyncWorker_25) [pymodbus.transaction] Current transaction state - TRANSACTION_COMPLETE
2023-02-03 10:57:34.873 DEBUG (SyncWorker_25) [pymodbus.transaction] Running transaction 70
2023-02-03 10:57:34.873 DEBUG (SyncWorker_25) [pymodbus.transaction] SEND: 0x0 0x46 0x0 0x0 0x0 0x6 0x1 0x4 0x1 0x5e 0x0 0x2
2023-02-03 10:57:34.873 DEBUG (SyncWorker_25) [pymodbus.client.base] New Transaction state "SENDING"
2023-02-03 10:57:34.874 DEBUG (SyncWorker_25) [pymodbus.transaction] Changing transaction state from "SENDING" to "WAITING FOR REPLY"
2023-02-03 10:57:34.919 DEBUG (SyncWorker_25) [pymodbus.transaction] Changing transaction state from "WAITING FOR REPLY" to "PROCESSING REPLY"
2023-02-03 10:57:34.919 DEBUG (SyncWorker_25) [pymodbus.transaction] RECV: 0x0 0x46 0x0 0x0 0x0 0x7 0x1 0x4 0x4 0x45 0xb5 0x3c 0x9e
