################################################################################
#
# Debugging start-up with 170 modbus sensors.
# Scan_interval set to 15 sec for 10 sensors, remaining sensors set to 60 sec.
#
# Log settings:
#
#   logger:
#     default: warn
#     logs:
#       homeassistant.components.modbus: debug
#       pymodbus: debug
#

2023-02-03 12:05:52.578 DEBUG (SyncWorker_2) [pymodbus.client.tcp] Connection to Modbus server established. Socket ('192.168.16.140', 51522)
2023-02-03 12:05:52.579 INFO (SyncWorker_2) [homeassistant.components.modbus.modbus] modbus Waveshare Meterkast communication open
2023-02-03 12:06:09.648 DEBUG (SyncWorker_10) [pymodbus.transaction] Current transaction state - IDLE
2023-02-03 12:06:09.648 DEBUG (SyncWorker_10) [pymodbus.transaction] Running transaction 1
2023-02-03 12:06:09.648 DEBUG (SyncWorker_10) [pymodbus.transaction] SEND: 0x0 0x1 0x0 0x0 0x0 0x6 0x1 0x4 0x0 0x34 0x0 0x2
2023-02-03 12:06:09.648 DEBUG (SyncWorker_10) [pymodbus.client.base] New Transaction state "SENDING"
2023-02-03 12:06:09.650 DEBUG (SyncWorker_10) [pymodbus.transaction] Changing transaction state from "SENDING" to "WAITING FOR REPLY"
2023-02-03 12:06:09.691 DEBUG (SyncWorker_10) [pymodbus.transaction] Changing transaction state from "WAITING FOR REPLY" to "PROCESSING REPLY"
2023-02-03 12:06:09.692 DEBUG (SyncWorker_10) [pymodbus.transaction] RECV: 0x0 0x1 0x0 0x0 0x0 0x7 0x1 0x4 0x4 0x44 0x13 0x72 0xda
2023-02-03 12:06:09.692 DEBUG (SyncWorker_10) [pymodbus.framer.socket_framer] Processing: 0x0 0x1 0x0 0x0 0x0 0x7 0x1 0x4 0x4 0x44 0x13 0x72 0xda
2023-02-03 12:06:09.693 DEBUG (SyncWorker_10) [pymodbus.factory] Factory Response[ReadInputRegistersResponse': 4]
2023-02-03 12:06:09.693 DEBUG (SyncWorker_10) [pymodbus.transaction] Adding transaction 1
2023-02-03 12:06:09.693 DEBUG (SyncWorker_10) [pymodbus.transaction] Getting transaction 1
2023-02-03 12:06:09.693 DEBUG (SyncWorker_10) [pymodbus.transaction] Changing transaction state from "PROCESSING REPLY" to "TRANSACTION_COMPLETE"
2023-02-03 12:06:10.004 DEBUG (SyncWorker_7) [pymodbus.transaction] Current transaction state - TRANSACTION_COMPLETE
2023-02-03 12:06:10.004 DEBUG (SyncWorker_7) [pymodbus.transaction] Running transaction 2
2023-02-03 12:06:10.005 DEBUG (SyncWorker_7) [pymodbus.transaction] SEND: 0x0 0x2 0x0 0x0 0x0 0x6 0x1 0x4 0x0 0x48 0x0 0x2
2023-02-03 12:06:10.005 DEBUG (SyncWorker_7) [pymodbus.client.base] New Transaction state "SENDING"
2023-02-03 12:06:10.005 DEBUG (SyncWorker_7) [pymodbus.transaction] Changing transaction state from "SENDING" to "WAITING FOR REPLY"
2023-02-03 12:06:10.048 DEBUG (SyncWorker_7) [pymodbus.transaction] Changing transaction state from "WAITING FOR REPLY" to "PROCESSING REPLY"
2023-02-03 12:06:10.048 DEBUG (SyncWorker_7) [pymodbus.transaction] RECV: 0x0 0x2 0x0 0x0 0x0 0x7 0x1 0x4 0x4 0x46 0x88 0x6 0xd3
2023-02-03 12:06:10.049 DEBUG (SyncWorker_7) [pymodbus.framer.socket_framer] Processing: 0x0 0x2 0x0 0x0 0x0 0x7 0x1 0x4 0x4 0x46 0x88 0x6 0xd3
2023-02-03 12:06:10.049 DEBUG (SyncWorker_7) [pymodbus.factory] Factory Response[ReadInputRegistersResponse': 4]
2023-02-03 12:06:10.049 DEBUG (SyncWorker_7) [pymodbus.transaction] Adding transaction 2
2023-02-03 12:06:10.049 DEBUG (SyncWorker_7) [pymodbus.transaction] Getting transaction 2
2023-02-03 12:06:10.049 DEBUG (SyncWorker_7) [pymodbus.transaction] Changing transaction state from "PROCESSING REPLY" to "TRANSACTION_COMPLETE"
2023-02-03 12:06:10.336 DEBUG (SyncWorker_9) [pymodbus.transaction] Current transaction state - TRANSACTION_COMPLETE
2023-02-03 12:06:10.336 DEBUG (SyncWorker_9) [pymodbus.transaction] Running transaction 3
2023-02-03 12:06:10.336 DEBUG (SyncWorker_9) [pymodbus.transaction] SEND: 0x0 0x3 0x0 0x0 0x0 0x6 0x1 0x4 0x0 0x4a 0x0 0x2
2023-02-03 12:06:10.336 DEBUG (SyncWorker_9) [pymodbus.client.base] New Transaction state "SENDING"
2023-02-03 12:06:10.336 DEBUG (SyncWorker_9) [pymodbus.transaction] Changing transaction state from "SENDING" to "WAITING FOR REPLY"
2023-02-03 12:06:10.383 DEBUG (SyncWorker_9) [pymodbus.transaction] Changing transaction state from "WAITING FOR REPLY" to "PROCESSING REPLY"
2023-02-03 12:06:10.383 DEBUG (SyncWorker_9) [pymodbus.transaction] RECV: 0x0 0x3 0x0 0x0 0x0 0x7 0x1 0x4 0x4 0x40 0xa7 0x43 0x96
2023-02-03 12:06:10.383 DEBUG (SyncWorker_9) [pymodbus.framer.socket_framer] Processing: 0x0 0x3 0x0 0x0 0x0 0x7 0x1 0x4 0x4 0x40 0xa7 0x43 0x96
2023-02-03 12:06:10.384 DEBUG (SyncWorker_9) [pymodbus.factory] Factory Response[ReadInputRegistersResponse': 4]
2023-02-03 12:06:10.384 DEBUG (SyncWorker_9) [pymodbus.transaction] Adding transaction 3
2023-02-03 12:06:10.384 DEBUG (SyncWorker_9) [pymodbus.transaction] Getting transaction 3
2023-02-03 12:06:10.384 DEBUG (SyncWorker_9) [pymodbus.transaction] Changing transaction state from "PROCESSING REPLY" to "TRANSACTION_COMPLETE"
2023-02-03 12:06:11.905 DEBUG (SyncWorker_14) [pymodbus.transaction] Current transaction state - TRANSACTION_COMPLETE
2023-02-03 12:06:11.905 DEBUG (SyncWorker_14) [pymodbus.transaction] Running transaction 4
2023-02-03 12:06:11.905 DEBUG (SyncWorker_14) [pymodbus.transaction] SEND: 0x0 0x4 0x0 0x0 0x0 0x6 0x1 0x4 0x0 0x54 0x0 0x2
2023-02-03 12:06:11.905 DEBUG (SyncWorker_14) [pymodbus.client.base] New Transaction state "SENDING"
2023-02-03 12:06:11.906 DEBUG (SyncWorker_14) [pymodbus.transaction] Changing transaction state from "SENDING" to "WAITING FOR REPLY"
2023-02-03 12:06:11.948 DEBUG (SyncWorker_14) [pymodbus.transaction] Changing transaction state from "WAITING FOR REPLY" to "PROCESSING REPLY"
2023-02-03 12:06:11.948 DEBUG (SyncWorker_14) [pymodbus.transaction] RECV: 0x0 0x4 0x0 0x0 0x0 0x7 0x1 0x4 0x4 0x43 0xce 0x85 0x87
2023-02-03 12:06:11.948 DEBUG (SyncWorker_14) [pymodbus.framer.socket_framer] Processing: 0x0 0x4 0x0 0x0 0x0 0x7 0x1 0x4 0x4 0x43 0xce 0x85 0x87
2023-02-03 12:06:11.949 DEBUG (SyncWorker_14) [pymodbus.factory] Factory Response[ReadInputRegistersResponse': 4]
2023-02-03 12:06:11.949 DEBUG (SyncWorker_14) [pymodbus.transaction] Adding transaction 4
2023-02-03 12:06:11.949 DEBUG (SyncWorker_14) [pymodbus.transaction] Getting transaction 4
2023-02-03 12:06:11.949 DEBUG (SyncWorker_14) [pymodbus.transaction] Changing transaction state from "PROCESSING REPLY" to "TRANSACTION_COMPLETE"
2023-02-03 12:06:12.164 DEBUG (SyncWorker_16) [pymodbus.transaction] Current transaction state - TRANSACTION_COMPLETE
2023-02-03 12:06:12.164 DEBUG (SyncWorker_16) [pymodbus.transaction] Running transaction 5
2023-02-03 12:06:12.164 DEBUG (SyncWorker_16) [pymodbus.transaction] SEND: 0x0 0x5 0x0 0x0 0x0 0x6 0x1 0x4 0x1 0x56 0x0 0x2
2023-02-03 12:06:12.164 DEBUG (SyncWorker_16) [pymodbus.client.base] New Transaction state "SENDING"
2023-02-03 12:06:12.165 DEBUG (SyncWorker_16) [pymodbus.transaction] Changing transaction state from "SENDING" to "WAITING FOR REPLY"
2023-02-03 12:06:12.209 DEBUG (SyncWorker_16) [pymodbus.transaction] Changing transaction state from "WAITING FOR REPLY" to "PROCESSING REPLY"
2023-02-03 12:06:12.209 DEBUG (SyncWorker_16) [pymodbus.transaction] RECV: 0x0 0x5 0x0 0x0 0x0 0x7 0x1 0x4 0x4 0x46 0x88 0x11 0x47
2023-02-03 12:06:12.210 DEBUG (SyncWorker_16) [pymodbus.framer.socket_framer] Processing: 0x0 0x5 0x0 0x0 0x0 0x7 0x1 0x4 0x4 0x46 0x88 0x11 0x47
2023-02-03 12:06:12.210 DEBUG (SyncWorker_16) [pymodbus.factory] Factory Response[ReadInputRegistersResponse': 4]
2023-02-03 12:06:12.210 DEBUG (SyncWorker_16) [pymodbus.transaction] Adding transaction 5
2023-02-03 12:06:12.210 DEBUG (SyncWorker_16) [pymodbus.transaction] Getting transaction 5
2023-02-03 12:06:12.210 DEBUG (SyncWorker_16) [pymodbus.transaction] Changing transaction state from "PROCESSING REPLY" to "TRANSACTION_COMPLETE"
2023-02-03 12:06:12.413 DEBUG (SyncWorker_5) [pymodbus.transaction] Current transaction state - TRANSACTION_COMPLETE
2023-02-03 12:06:12.413 DEBUG (SyncWorker_5) [pymodbus.transaction] Running transaction 6
2023-02-03 12:06:12.413 DEBUG (SyncWorker_5) [pymodbus.transaction] SEND: 0x0 0x6 0x0 0x0 0x0 0x6 0x1 0x4 0x0 0x0 0x0 0x2
2023-02-03 12:06:12.413 DEBUG (SyncWorker_5) [pymodbus.client.base] New Transaction state "SENDING"
2023-02-03 12:06:12.413 DEBUG (SyncWorker_5) [pymodbus.transaction] Changing transaction state from "SENDING" to "WAITING FOR REPLY"
2023-02-03 12:06:12.455 DEBUG (SyncWorker_5) [pymodbus.transaction] Changing transaction state from "WAITING FOR REPLY" to "PROCESSING REPLY"
2023-02-03 12:06:12.455 DEBUG (SyncWorker_5) [pymodbus.transaction] RECV: 0x0 0x6 0x0 0x0 0x0 0x7 0x1 0x4 0x4 0x43 0x63 0x22 0xd0
2023-02-03 12:06:12.455 DEBUG (SyncWorker_5) [pymodbus.framer.socket_framer] Processing: 0x0 0x6 0x0 0x0 0x0 0x7 0x1 0x4 0x4 0x43 0x63 0x22 0xd0
2023-02-03 12:06:12.455 DEBUG (SyncWorker_5) [pymodbus.factory] Factory Response[ReadInputRegistersResponse': 4]
2023-02-03 12:06:12.455 DEBUG (SyncWorker_5) [pymodbus.transaction] Adding transaction 6
2023-02-03 12:06:12.455 DEBUG (SyncWorker_5) [pymodbus.transaction] Getting transaction 6
2023-02-03 12:06:12.456 DEBUG (SyncWorker_5) [pymodbus.transaction] Changing transaction state from "PROCESSING REPLY" to "TRANSACTION_COMPLETE"
2023-02-03 12:06:12.662 DEBUG (SyncWorker_12) [pymodbus.transaction] Current transaction state - TRANSACTION_COMPLETE
2023-02-03 12:06:12.662 DEBUG (SyncWorker_12) [pymodbus.transaction] Running transaction 7
2023-02-03 12:06:12.662 DEBUG (SyncWorker_12) [pymodbus.transaction] SEND: 0x0 0x7 0x0 0x0 0x0 0x6 0x1 0x4 0x0 0x2 0x0 0x2
2023-02-03 12:06:12.663 DEBUG (SyncWorker_12) [pymodbus.client.base] New Transaction state "SENDING"
2023-02-03 12:06:12.663 DEBUG (SyncWorker_12) [pymodbus.transaction] Changing transaction state from "SENDING" to "WAITING FOR REPLY"
2023-02-03 12:06:12.713 DEBUG (SyncWorker_12) [pymodbus.transaction] Changing transaction state from "WAITING FOR REPLY" to "PROCESSING REPLY"
2023-02-03 12:06:12.713 DEBUG (SyncWorker_12) [pymodbus.transaction] RECV: 0x0 0x7 0x0 0x0 0x0 0x7 0x1 0x4 0x4 0x43 0x65 0x26 0x33
2023-02-03 12:06:12.714 DEBUG (SyncWorker_12) [pymodbus.framer.socket_framer] Processing: 0x0 0x7 0x0 0x0 0x0 0x7 0x1 0x4 0x4 0x43 0x65 0x26 0x33
2023-02-03 12:06:12.714 DEBUG (SyncWorker_12) [pymodbus.factory] Factory Response[ReadInputRegistersResponse': 4]
2023-02-03 12:06:12.714 DEBUG (SyncWorker_12) [pymodbus.transaction] Adding transaction 7
2023-02-03 12:06:12.714 DEBUG (SyncWorker_12) [pymodbus.transaction] Getting transaction 7
2023-02-03 12:06:12.715 DEBUG (SyncWorker_12) [pymodbus.transaction] Changing transaction state from "PROCESSING REPLY" to "TRANSACTION_COMPLETE"
2023-02-03 12:06:12.921 DEBUG (SyncWorker_11) [pymodbus.transaction] Current transaction state - TRANSACTION_COMPLETE
2023-02-03 12:06:12.921 DEBUG (SyncWorker_11) [pymodbus.transaction] Running transaction 8
2023-02-03 12:06:12.922 DEBUG (SyncWorker_11) [pymodbus.transaction] SEND: 0x0 0x8 0x0 0x0 0x0 0x6 0x1 0x4 0x0 0x4 0x0 0x2
2023-02-03 12:06:12.922 DEBUG (SyncWorker_11) [pymodbus.client.base] New Transaction state "SENDING"
2023-02-03 12:06:12.922 DEBUG (SyncWorker_11) [pymodbus.transaction] Changing transaction state from "SENDING" to "WAITING FOR REPLY"
2023-02-03 12:06:12.962 DEBUG (SyncWorker_11) [pymodbus.transaction] Changing transaction state from "WAITING FOR REPLY" to "PROCESSING REPLY"
2023-02-03 12:06:12.962 DEBUG (SyncWorker_11) [pymodbus.transaction] RECV: 0x0 0x8 0x0 0x0 0x0 0x7 0x1 0x4 0x4 0x43 0x64 0x65 0x15
2023-02-03 12:06:12.962 DEBUG (SyncWorker_11) [pymodbus.framer.socket_framer] Processing: 0x0 0x8 0x0 0x0 0x0 0x7 0x1 0x4 0x4 0x43 0x64 0x65 0x15
2023-02-03 12:06:12.963 DEBUG (SyncWorker_11) [pymodbus.factory] Factory Response[ReadInputRegistersResponse': 4]
2023-02-03 12:06:12.963 DEBUG (SyncWorker_11) [pymodbus.transaction] Adding transaction 8
2023-02-03 12:06:12.963 DEBUG (SyncWorker_11) [pymodbus.transaction] Getting transaction 8
2023-02-03 12:06:12.963 DEBUG (SyncWorker_11) [pymodbus.transaction] Changing transaction state from "PROCESSING REPLY" to "TRANSACTION_COMPLETE"
2023-02-03 12:06:13.168 DEBUG (SyncWorker_14) [pymodbus.transaction] Current transaction state - TRANSACTION_COMPLETE
2023-02-03 12:06:13.168 DEBUG (SyncWorker_14) [pymodbus.transaction] Running transaction 9
2023-02-03 12:06:13.168 DEBUG (SyncWorker_14) [pymodbus.transaction] SEND: 0x0 0x9 0x0 0x0 0x0 0x6 0x1 0x4 0x0 0x6 0x0 0x2
2023-02-03 12:06:13.169 DEBUG (SyncWorker_14) [pymodbus.client.base] New Transaction state "SENDING"
2023-02-03 12:06:13.169 DEBUG (SyncWorker_14) [pymodbus.transaction] Changing transaction state from "SENDING" to "WAITING FOR REPLY"
2023-02-03 12:06:13.213 DEBUG (SyncWorker_14) [pymodbus.transaction] Changing transaction state from "WAITING FOR REPLY" to "PROCESSING REPLY"
2023-02-03 12:06:13.213 DEBUG (SyncWorker_14) [pymodbus.transaction] RECV: 0x0 0x9 0x0 0x0 0x0 0x7 0x1 0x4 0x4 0x3f 0x5f 0x64 0x74
2023-02-03 12:06:13.214 DEBUG (SyncWorker_14) [pymodbus.framer.socket_framer] Processing: 0x0 0x9 0x0 0x0 0x0 0x7 0x1 0x4 0x4 0x3f 0x5f 0x64 0x74
2023-02-03 12:06:13.214 DEBUG (SyncWorker_14) [pymodbus.factory] Factory Response[ReadInputRegistersResponse': 4]
2023-02-03 12:06:13.214 DEBUG (SyncWorker_14) [pymodbus.transaction] Adding transaction 9
2023-02-03 12:06:13.214 DEBUG (SyncWorker_14) [pymodbus.transaction] Getting transaction 9
2023-02-03 12:06:13.215 DEBUG (SyncWorker_14) [pymodbus.transaction] Changing transaction state from "PROCESSING REPLY" to "TRANSACTION_COMPLETE"
2023-02-03 12:06:13.419 DEBUG (SyncWorker_3) [pymodbus.transaction] Current transaction state - TRANSACTION_COMPLETE
2023-02-03 12:06:13.420 DEBUG (SyncWorker_3) [pymodbus.transaction] Running transaction 10
2023-02-03 12:06:13.420 DEBUG (SyncWorker_3) [pymodbus.transaction] SEND: 0x0 0xa 0x0 0x0 0x0 0x6 0x1 0x4 0x0 0x8 0x0 0x2
2023-02-03 12:06:13.420 DEBUG (SyncWorker_3) [pymodbus.client.base] New Transaction state "SENDING"
2023-02-03 12:06:13.421 DEBUG (SyncWorker_3) [pymodbus.transaction] Changing transaction state from "SENDING" to "WAITING FOR REPLY"
2023-02-03 12:06:13.464 DEBUG (SyncWorker_3) [pymodbus.transaction] Changing transaction state from "WAITING FOR REPLY" to "PROCESSING REPLY"
2023-02-03 12:06:13.464 DEBUG (SyncWorker_3) [pymodbus.transaction] RECV: 0x0 0xa 0x0 0x0 0x0 0x7 0x1 0x4 0x4 0x3f 0x5a 0x3f 0x5a
2023-02-03 12:06:13.464 DEBUG (SyncWorker_3) [pymodbus.framer.socket_framer] Processing: 0x0 0xa 0x0 0x0 0x0 0x7 0x1 0x4 0x4 0x3f 0x5a 0x3f 0x5a
2023-02-03 12:06:13.465 DEBUG (SyncWorker_3) [pymodbus.factory] Factory Response[ReadInputRegistersResponse': 4]
2023-02-03 12:06:13.465 DEBUG (SyncWorker_3) [pymodbus.transaction] Adding transaction 10
2023-02-03 12:06:13.465 DEBUG (SyncWorker_3) [pymodbus.transaction] Getting transaction 10
2023-02-03 12:06:13.465 DEBUG (SyncWorker_3) [pymodbus.transaction] Changing transaction state from "PROCESSING REPLY" to "TRANSACTION_COMPLETE"
2023-02-03 12:06:13.669 DEBUG (SyncWorker_2) [pymodbus.transaction] Current transaction state - TRANSACTION_COMPLETE
2023-02-03 12:06:13.669 DEBUG (SyncWorker_2) [pymodbus.transaction] Running transaction 11
2023-02-03 12:06:13.670 DEBUG (SyncWorker_2) [pymodbus.transaction] SEND: 0x0 0xb 0x0 0x0 0x0 0x6 0x1 0x4 0x0 0xa 0x0 0x2
2023-02-03 12:06:13.670 DEBUG (SyncWorker_2) [pymodbus.client.base] New Transaction state "SENDING"
2023-02-03 12:06:13.672 DEBUG (SyncWorker_2) [pymodbus.transaction] Changing transaction state from "SENDING" to "WAITING FOR REPLY"
2023-02-03 12:06:13.717 DEBUG (SyncWorker_2) [pymodbus.transaction] Changing transaction state from "WAITING FOR REPLY" to "PROCESSING REPLY"
2023-02-03 12:06:13.717 DEBUG (SyncWorker_2) [pymodbus.transaction] RECV: 0x0 0xb 0x0 0x0 0x0 0x7 0x1 0x4 0x4 0x3f 0x5f 0xb 0xcf
2023-02-03 12:06:13.717 DEBUG (SyncWorker_2) [pymodbus.framer.socket_framer] Processing: 0x0 0xb 0x0 0x0 0x0 0x7 0x1 0x4 0x4 0x3f 0x5f 0xb 0xcf
2023-02-03 12:06:13.717 DEBUG (SyncWorker_2) [pymodbus.factory] Factory Response[ReadInputRegistersResponse': 4]
2023-02-03 12:06:13.718 DEBUG (SyncWorker_2) [pymodbus.transaction] Adding transaction 11
2023-02-03 12:06:13.718 DEBUG (SyncWorker_2) [pymodbus.transaction] Getting transaction 11
2023-02-03 12:06:13.718 DEBUG (SyncWorker_2) [pymodbus.transaction] Changing transaction state from "PROCESSING REPLY" to "TRANSACTION_COMPLETE"
2023-02-03 12:06:13.926 DEBUG (SyncWorker_4) [pymodbus.transaction] Current transaction state - TRANSACTION_COMPLETE
2023-02-03 12:06:13.926 DEBUG (SyncWorker_4) [pymodbus.transaction] Running transaction 12
2023-02-03 12:06:13.926 DEBUG (SyncWorker_4) [pymodbus.transaction] SEND: 0x0 0xc 0x0 0x0 0x0 0x6 0x1 0x4 0x0 0xc 0x0 0x2
2023-02-03 12:06:13.927 DEBUG (SyncWorker_4) [pymodbus.client.base] New Transaction state "SENDING"
2023-02-03 12:06:13.927 DEBUG (SyncWorker_4) [pymodbus.transaction] Changing transaction state from "SENDING" to "WAITING FOR REPLY"
2023-02-03 12:06:13.967 DEBUG (SyncWorker_4) [pymodbus.transaction] Changing transaction state from "WAITING FOR REPLY" to "PROCESSING REPLY"
2023-02-03 12:06:13.967 DEBUG (SyncWorker_4) [pymodbus.transaction] RECV: 0x0 0xc 0x0 0x0 0x0 0x7 0x1 0x4 0x4 0x43 0x47 0x83 0xde
2023-02-03 12:06:13.968 DEBUG (SyncWorker_4) [pymodbus.framer.socket_framer] Processing: 0x0 0xc 0x0 0x0 0x0 0x7 0x1 0x4 0x4 0x43 0x47 0x83 0xde
2023-02-03 12:06:13.968 DEBUG (SyncWorker_4) [pymodbus.factory] Factory Response[ReadInputRegistersResponse': 4]
2023-02-03 12:06:13.968 DEBUG (SyncWorker_4) [pymodbus.transaction] Adding transaction 12
2023-02-03 12:06:13.968 DEBUG (SyncWorker_4) [pymodbus.transaction] Getting transaction 12
2023-02-03 12:06:13.969 DEBUG (SyncWorker_4) [pymodbus.transaction] Changing transaction state from "PROCESSING REPLY" to "TRANSACTION_COMPLETE"
2023-02-03 12:06:14.173 DEBUG (SyncWorker_1) [pymodbus.transaction] Current transaction state - TRANSACTION_COMPLETE
2023-02-03 12:06:14.174 DEBUG (SyncWorker_1) [pymodbus.transaction] Running transaction 13
2023-02-03 12:06:14.174 DEBUG (SyncWorker_1) [pymodbus.transaction] SEND: 0x0 0xd 0x0 0x0 0x0 0x6 0x1 0x4 0x0 0xe 0x0 0x2
2023-02-03 12:06:14.174 DEBUG (SyncWorker_1) [pymodbus.client.base] New Transaction state "SENDING"
2023-02-03 12:06:14.175 DEBUG (SyncWorker_1) [pymodbus.transaction] Changing transaction state from "SENDING" to "WAITING FOR REPLY"
2023-02-03 12:06:14.214 DEBUG (SyncWorker_1) [pymodbus.transaction] Changing transaction state from "WAITING FOR REPLY" to "PROCESSING REPLY"
2023-02-03 12:06:14.214 DEBUG (SyncWorker_1) [pymodbus.transaction] RECV: 0x0 0xd 0x0 0x0 0x0 0x7 0x1 0x4 0x4 0x43 0x44 0x49 0xbd
2023-02-03 12:06:14.215 DEBUG (SyncWorker_1) [pymodbus.framer.socket_framer] Processing: 0x0 0xd 0x0 0x0 0x0 0x7 0x1 0x4 0x4 0x43 0x44 0x49 0xbd
2023-02-03 12:06:14.215 DEBUG (SyncWorker_1) [pymodbus.factory] Factory Response[ReadInputRegistersResponse': 4]
2023-02-03 12:06:14.215 DEBUG (SyncWorker_1) [pymodbus.transaction] Adding transaction 13
2023-02-03 12:06:14.215 DEBUG (SyncWorker_1) [pymodbus.transaction] Getting transaction 13
2023-02-03 12:06:14.215 DEBUG (SyncWorker_1) [pymodbus.transaction] Changing transaction state from "PROCESSING REPLY" to "TRANSACTION_COMPLETE"
2023-02-03 12:06:14.419 DEBUG (SyncWorker_16) [pymodbus.transaction] Current transaction state - TRANSACTION_COMPLETE
2023-02-03 12:06:14.420 DEBUG (SyncWorker_16) [pymodbus.transaction] Running transaction 14
2023-02-03 12:06:14.420 DEBUG (SyncWorker_16) [pymodbus.transaction] SEND: 0x0 0xe 0x0 0x0 0x0 0x6 0x1 0x4 0x0 0x10 0x0 0x2
2023-02-03 12:06:14.420 DEBUG (SyncWorker_16) [pymodbus.client.base] New Transaction state "SENDING"
2023-02-03 12:06:14.422 DEBUG (SyncWorker_16) [pymodbus.transaction] Changing transaction state from "SENDING" to "WAITING FOR REPLY"
2023-02-03 12:06:14.463 DEBUG (SyncWorker_16) [pymodbus.transaction] Changing transaction state from "WAITING FOR REPLY" to "PROCESSING REPLY"
2023-02-03 12:06:14.463 DEBUG (SyncWorker_16) [pymodbus.transaction] RECV: 0x0 0xe 0x0 0x0 0x0 0x7 0x1 0x4 0x4 0x43 0x47 0xa6 0x23
2023-02-03 12:06:14.464 DEBUG (SyncWorker_16) [pymodbus.framer.socket_framer] Processing: 0x0 0xe 0x0 0x0 0x0 0x7 0x1 0x4 0x4 0x43 0x47 0xa6 0x23
2023-02-03 12:06:14.464 DEBUG (SyncWorker_16) [pymodbus.factory] Factory Response[ReadInputRegistersResponse': 4]
2023-02-03 12:06:14.464 DEBUG (SyncWorker_16) [pymodbus.transaction] Adding transaction 14
2023-02-03 12:06:14.464 DEBUG (SyncWorker_16) [pymodbus.transaction] Getting transaction 14
2023-02-03 12:06:14.464 DEBUG (SyncWorker_16) [pymodbus.transaction] Changing transaction state from "PROCESSING REPLY" to "TRANSACTION_COMPLETE"
2023-02-03 12:06:14.669 DEBUG (SyncWorker_5) [pymodbus.transaction] Current transaction state - TRANSACTION_COMPLETE
2023-02-03 12:06:14.669 DEBUG (SyncWorker_5) [pymodbus.transaction] Running transaction 15
2023-02-03 12:06:14.669 DEBUG (SyncWorker_5) [pymodbus.transaction] SEND: 0x0 0xf 0x0 0x0 0x0 0x6 0x1 0x4 0x0 0x12 0x0 0x2
2023-02-03 12:06:14.670 DEBUG (SyncWorker_5) [pymodbus.client.base] New Transaction state "SENDING"
2023-02-03 12:06:14.671 DEBUG (SyncWorker_5) [pymodbus.transaction] Changing transaction state from "SENDING" to "WAITING FOR REPLY"
2023-02-03 12:06:14.710 DEBUG (SyncWorker_5) [pymodbus.transaction] Changing transaction state from "WAITING FOR REPLY" to "PROCESSING REPLY"
2023-02-03 12:06:14.710 DEBUG (SyncWorker_5) [pymodbus.transaction] RECV: 0x0 0xf 0x0 0x0 0x0 0x7 0x1 0x4 0x4 0x43 0x47 0xb6 0xef
2023-02-03 12:06:14.710 DEBUG (SyncWorker_5) [pymodbus.framer.socket_framer] Processing: 0x0 0xf 0x0 0x0 0x0 0x7 0x1 0x4 0x4 0x43 0x47 0xb6 0xef
2023-02-03 12:06:14.711 DEBUG (SyncWorker_5) [pymodbus.factory] Factory Response[ReadInputRegistersResponse': 4]
2023-02-03 12:06:14.711 DEBUG (SyncWorker_5) [pymodbus.transaction] Adding transaction 15
2023-02-03 12:06:14.711 DEBUG (SyncWorker_5) [pymodbus.transaction] Getting transaction 15
2023-02-03 12:06:14.711 DEBUG (SyncWorker_5) [pymodbus.transaction] Changing transaction state from "PROCESSING REPLY" to "TRANSACTION_COMPLETE"
2023-02-03 12:06:14.915 DEBUG (SyncWorker_12) [pymodbus.transaction] Current transaction state - TRANSACTION_COMPLETE
2023-02-03 12:06:14.915 DEBUG (SyncWorker_12) [pymodbus.transaction] Running transaction 16
2023-02-03 12:06:14.915 DEBUG (SyncWorker_12) [pymodbus.transaction] SEND: 0x0 0x10 0x0 0x0 0x0 0x6 0x1 0x4 0x0 0x14 0x0 0x2
2023-02-03 12:06:14.915 DEBUG (SyncWorker_12) [pymodbus.client.base] New Transaction state "SENDING"
2023-02-03 12:06:14.916 DEBUG (SyncWorker_12) [pymodbus.transaction] Changing transaction state from "SENDING" to "WAITING FOR REPLY"
2023-02-03 12:06:14.956 DEBUG (SyncWorker_12) [pymodbus.transaction] Changing transaction state from "WAITING FOR REPLY" to "PROCESSING REPLY"
2023-02-03 12:06:14.956 DEBUG (SyncWorker_12) [pymodbus.transaction] RECV: 0x0 0x10 0x0 0x0 0x0 0x7 0x1 0x4 0x4 0x43 0x44 0xe 0xd9
2023-02-03 12:06:14.956 DEBUG (SyncWorker_12) [pymodbus.framer.socket_framer] Processing: 0x0 0x10 0x0 0x0 0x0 0x7 0x1 0x4 0x4 0x43 0x44 0xe 0xd9
2023-02-03 12:06:14.956 DEBUG (SyncWorker_12) [pymodbus.factory] Factory Response[ReadInputRegistersResponse': 4]
2023-02-03 12:06:14.956 DEBUG (SyncWorker_12) [pymodbus.transaction] Adding transaction 16
2023-02-03 12:06:14.957 DEBUG (SyncWorker_12) [pymodbus.transaction] Getting transaction 16
2023-02-03 12:06:14.957 DEBUG (SyncWorker_12) [pymodbus.transaction] Changing transaction state from "PROCESSING REPLY" to "TRANSACTION_COMPLETE"
2023-02-03 12:06:15.160 DEBUG (SyncWorker_11) [pymodbus.transaction] Current transaction state - TRANSACTION_COMPLETE
2023-02-03 12:06:15.161 DEBUG (SyncWorker_11) [pymodbus.transaction] Running transaction 17
2023-02-03 12:06:15.161 DEBUG (SyncWorker_11) [pymodbus.transaction] SEND: 0x0 0x11 0x0 0x0 0x0 0x6 0x1 0x4 0x0 0x16 0x0 0x2
2023-02-03 12:06:15.161 DEBUG (SyncWorker_11) [pymodbus.client.base] New Transaction state "SENDING"
2023-02-03 12:06:15.161 DEBUG (SyncWorker_11) [pymodbus.transaction] Changing transaction state from "SENDING" to "WAITING FOR REPLY"
2023-02-03 12:06:15.201 DEBUG (SyncWorker_11) [pymodbus.transaction] Changing transaction state from "WAITING FOR REPLY" to "PROCESSING REPLY"
2023-02-03 12:06:15.201 DEBUG (SyncWorker_11) [pymodbus.transaction] RECV: 0x0 0x11 0x0 0x0 0x0 0x7 0x1 0x4 0x4 0x43 0x47 0x31 0x50
2023-02-03 12:06:15.202 DEBUG (SyncWorker_11) [pymodbus.framer.socket_framer] Processing: 0x0 0x11 0x0 0x0 0x0 0x7 0x1 0x4 0x4 0x43 0x47 0x31 0x50
2023-02-03 12:06:15.202 DEBUG (SyncWorker_11) [pymodbus.factory] Factory Response[ReadInputRegistersResponse': 4]
2023-02-03 12:06:15.202 DEBUG (SyncWorker_11) [pymodbus.transaction] Adding transaction 17
2023-02-03 12:06:15.202 DEBUG (SyncWorker_11) [pymodbus.transaction] Getting transaction 17
2023-02-03 12:06:15.202 DEBUG (SyncWorker_11) [pymodbus.transaction] Changing transaction state from "PROCESSING REPLY" to "TRANSACTION_COMPLETE"
2023-02-03 12:06:15.405 DEBUG (SyncWorker_14) [pymodbus.transaction] Current transaction state - TRANSACTION_COMPLETE
2023-02-03 12:06:15.405 DEBUG (SyncWorker_14) [pymodbus.transaction] Running transaction 18
2023-02-03 12:06:15.406 DEBUG (SyncWorker_14) [pymodbus.transaction] SEND: 0x0 0x12 0x0 0x0 0x0 0x6 0x1 0x4 0x0 0x18 0x0 0x2
2023-02-03 12:06:15.406 DEBUG (SyncWorker_14) [pymodbus.client.base] New Transaction state "SENDING"
2023-02-03 12:06:15.406 DEBUG (SyncWorker_14) [pymodbus.transaction] Changing transaction state from "SENDING" to "WAITING FOR REPLY"
2023-02-03 12:06:15.446 DEBUG (SyncWorker_14) [pymodbus.transaction] Changing transaction state from "WAITING FOR REPLY" to "PROCESSING REPLY"
2023-02-03 12:06:15.446 DEBUG (SyncWorker_14) [pymodbus.transaction] RECV: 0x0 0x12 0x0 0x0 0x0 0x7 0x1 0x4 0x4 0x0 0x0 0x0 0x0
2023-02-03 12:06:15.446 DEBUG (SyncWorker_14) [pymodbus.framer.socket_framer] Processing: 0x0 0x12 0x0 0x0 0x0 0x7 0x1 0x4 0x4 0x0 0x0 0x0 0x0
2023-02-03 12:06:15.446 DEBUG (SyncWorker_14) [pymodbus.factory] Factory Response[ReadInputRegistersResponse': 4]
2023-02-03 12:06:15.446 DEBUG (SyncWorker_14) [pymodbus.transaction] Adding transaction 18
2023-02-03 12:06:15.446 DEBUG (SyncWorker_14) [pymodbus.transaction] Getting transaction 18
2023-02-03 12:06:15.446 DEBUG (SyncWorker_14) [pymodbus.transaction] Changing transaction state from "PROCESSING REPLY" to "TRANSACTION_COMPLETE"
2023-02-03 12:06:15.650 DEBUG (SyncWorker_3) [pymodbus.transaction] Current transaction state - TRANSACTION_COMPLETE
2023-02-03 12:06:15.650 DEBUG (SyncWorker_3) [pymodbus.transaction] Running transaction 19
2023-02-03 12:06:15.650 DEBUG (SyncWorker_3) [pymodbus.transaction] SEND: 0x0 0x13 0x0 0x0 0x0 0x6 0x1 0x4 0x0 0x1a 0x0 0x2
2023-02-03 12:06:15.650 DEBUG (SyncWorker_3) [pymodbus.client.base] New Transaction state "SENDING"
2023-02-03 12:06:15.652 DEBUG (SyncWorker_3) [pymodbus.transaction] Changing transaction state from "SENDING" to "WAITING FOR REPLY"
2023-02-03 12:06:15.695 DEBUG (SyncWorker_3) [pymodbus.transaction] Changing transaction state from "WAITING FOR REPLY" to "PROCESSING REPLY"
2023-02-03 12:06:15.695 DEBUG (SyncWorker_3) [pymodbus.transaction] RECV: 0x0 0x13 0x0 0x0 0x0 0x7 0x1 0x4 0x4 0x0 0x0 0x0 0x0
2023-02-03 12:06:15.695 DEBUG (SyncWorker_3) [pymodbus.framer.socket_framer] Processing: 0x0 0x13 0x0 0x0 0x0 0x7 0x1 0x4 0x4 0x0 0x0 0x0 0x0
2023-02-03 12:06:15.696 DEBUG (SyncWorker_3) [pymodbus.factory] Factory Response[ReadInputRegistersResponse': 4]
2023-02-03 12:06:15.696 DEBUG (SyncWorker_3) [pymodbus.transaction] Adding transaction 19
2023-02-03 12:06:15.696 DEBUG (SyncWorker_3) [pymodbus.transaction] Getting transaction 19
2023-02-03 12:06:15.696 DEBUG (SyncWorker_3) [pymodbus.transaction] Changing transaction state from "PROCESSING REPLY" to "TRANSACTION_COMPLETE"
2023-02-03 12:06:15.900 DEBUG (SyncWorker_2) [pymodbus.transaction] Current transaction state - TRANSACTION_COMPLETE
2023-02-03 12:06:15.900 DEBUG (SyncWorker_2) [pymodbus.transaction] Running transaction 20
2023-02-03 12:06:15.900 DEBUG (SyncWorker_2) [pymodbus.transaction] SEND: 0x0 0x14 0x0 0x0 0x0 0x6 0x1 0x4 0x0 0x1c 0x0 0x2
2023-02-03 12:06:15.900 DEBUG (SyncWorker_2) [pymodbus.client.base] New Transaction state "SENDING"
2023-02-03 12:06:15.900 DEBUG (SyncWorker_2) [pymodbus.transaction] Changing transaction state from "SENDING" to "WAITING FOR REPLY"
2023-02-03 12:06:15.941 DEBUG (SyncWorker_2) [pymodbus.transaction] Changing transaction state from "WAITING FOR REPLY" to "PROCESSING REPLY"
2023-02-03 12:06:15.942 DEBUG (SyncWorker_2) [pymodbus.transaction] RECV: 0x0 0x14 0x0 0x0 0x0 0x7 0x1 0x4 0x4 0x0 0x0 0x0 0x0
2023-02-03 12:06:15.942 DEBUG (SyncWorker_2) [pymodbus.framer.socket_framer] Processing: 0x0 0x14 0x0 0x0 0x0 0x7 0x1 0x4 0x4 0x0 0x0 0x0 0x0
2023-02-03 12:06:15.942 DEBUG (SyncWorker_2) [pymodbus.factory] Factory Response[ReadInputRegistersResponse': 4]
2023-02-03 12:06:15.942 DEBUG (SyncWorker_2) [pymodbus.transaction] Adding transaction 20
2023-02-03 12:06:15.942 DEBUG (SyncWorker_2) [pymodbus.transaction] Getting transaction 20
2023-02-03 12:06:15.942 DEBUG (SyncWorker_2) [pymodbus.transaction] Changing transaction state from "PROCESSING REPLY" to "TRANSACTION_COMPLETE"
2023-02-03 12:06:16.148 DEBUG (SyncWorker_13) [pymodbus.transaction] Current transaction state - TRANSACTION_COMPLETE
2023-02-03 12:06:16.148 DEBUG (SyncWorker_13) [pymodbus.transaction] Running transaction 21
2023-02-03 12:06:16.148 DEBUG (SyncWorker_13) [pymodbus.transaction] SEND: 0x0 0x15 0x0 0x0 0x0 0x6 0x1 0x4 0x0 0x1e 0x0 0x2
2023-02-03 12:06:16.148 DEBUG (SyncWorker_13) [pymodbus.client.base] New Transaction state "SENDING"
2023-02-03 12:06:16.148 DEBUG (SyncWorker_13) [pymodbus.transaction] Changing transaction state from "SENDING" to "WAITING FOR REPLY"
2023-02-03 12:06:16.194 DEBUG (SyncWorker_13) [pymodbus.transaction] Changing transaction state from "WAITING FOR REPLY" to "PROCESSING REPLY"
2023-02-03 12:06:16.194 DEBUG (SyncWorker_13) [pymodbus.transaction] RECV: 0x0 0x15 0x0 0x0 0x0 0x7 0x1 0x4 0x4 0x3f 0x7f 0xfb 0x6f
2023-02-03 12:06:16.194 DEBUG (SyncWorker_13) [pymodbus.framer.socket_framer] Processing: 0x0 0x15 0x0 0x0 0x0 0x7 0x1 0x4 0x4 0x3f 0x7f 0xfb 0x6f
2023-02-03 12:06:16.195 DEBUG (SyncWorker_13) [pymodbus.factory] Factory Response[ReadInputRegistersResponse': 4]
2023-02-03 12:06:16.195 DEBUG (SyncWorker_13) [pymodbus.transaction] Adding transaction 21
2023-02-03 12:06:16.195 DEBUG (SyncWorker_13) [pymodbus.transaction] Getting transaction 21
2023-02-03 12:06:16.195 DEBUG (SyncWorker_13) [pymodbus.transaction] Changing transaction state from "PROCESSING REPLY" to "TRANSACTION_COMPLETE"
2023-02-03 12:06:16.401 DEBUG (SyncWorker_10) [pymodbus.transaction] Current transaction state - TRANSACTION_COMPLETE
2023-02-03 12:06:16.402 DEBUG (SyncWorker_10) [pymodbus.transaction] Running transaction 22
2023-02-03 12:06:16.402 DEBUG (SyncWorker_10) [pymodbus.transaction] SEND: 0x0 0x16 0x0 0x0 0x0 0x6 0x1 0x4 0x0 0x20 0x0 0x2
2023-02-03 12:06:16.402 DEBUG (SyncWorker_10) [pymodbus.client.base] New Transaction state "SENDING"
2023-02-03 12:06:16.403 DEBUG (SyncWorker_10) [pymodbus.transaction] Changing transaction state from "SENDING" to "WAITING FOR REPLY"
2023-02-03 12:06:16.446 DEBUG (SyncWorker_10) [pymodbus.transaction] Changing transaction state from "WAITING FOR REPLY" to "PROCESSING REPLY"
2023-02-03 12:06:16.447 DEBUG (SyncWorker_10) [pymodbus.transaction] RECV: 0x0 0x16 0x0 0x0 0x0 0x7 0x1 0x4 0x4 0x3f 0x80 0x0 0x0
2023-02-03 12:06:16.447 DEBUG (SyncWorker_10) [pymodbus.framer.socket_framer] Processing: 0x0 0x16 0x0 0x0 0x0 0x7 0x1 0x4 0x4 0x3f 0x80 0x0 0x0
2023-02-03 12:06:16.447 DEBUG (SyncWorker_10) [pymodbus.factory] Factory Response[ReadInputRegistersResponse': 4]
2023-02-03 12:06:16.448 DEBUG (SyncWorker_10) [pymodbus.transaction] Adding transaction 22
2023-02-03 12:06:16.448 DEBUG (SyncWorker_10) [pymodbus.transaction] Getting transaction 22
2023-02-03 12:06:16.448 DEBUG (SyncWorker_10) [pymodbus.transaction] Changing transaction state from "PROCESSING REPLY" to "TRANSACTION_COMPLETE"
2023-02-03 12:06:16.653 DEBUG (SyncWorker_18) [pymodbus.transaction] Current transaction state - TRANSACTION_COMPLETE
2023-02-03 12:06:16.654 DEBUG (SyncWorker_18) [pymodbus.transaction] Running transaction 23
2023-02-03 12:06:16.654 DEBUG (SyncWorker_18) [pymodbus.transaction] SEND: 0x0 0x17 0x0 0x0 0x0 0x6 0x1 0x4 0x0 0x22 0x0 0x2
2023-02-03 12:06:16.654 DEBUG (SyncWorker_18) [pymodbus.client.base] New Transaction state "SENDING"
2023-02-03 12:06:16.656 DEBUG (SyncWorker_18) [pymodbus.transaction] Changing transaction state from "SENDING" to "WAITING FOR REPLY"
2023-02-03 12:06:16.704 DEBUG (SyncWorker_18) [pymodbus.transaction] Changing transaction state from "WAITING FOR REPLY" to "PROCESSING REPLY"
2023-02-03 12:06:16.704 DEBUG (SyncWorker_18) [pymodbus.transaction] RECV: 0x0 0x17 0x0 0x0 0x0 0x7 0x1 0x4 0x4 0x3f 0x7f 0xff 0xb3
2023-02-03 12:06:16.704 DEBUG (SyncWorker_18) [pymodbus.framer.socket_framer] Processing: 0x0 0x17 0x0 0x0 0x0 0x7 0x1 0x4 0x4 0x3f 0x7f 0xff 0xb3
2023-02-03 12:06:16.704 DEBUG (SyncWorker_18) [pymodbus.factory] Factory Response[ReadInputRegistersResponse': 4]
2023-02-03 12:06:16.705 DEBUG (SyncWorker_18) [pymodbus.transaction] Adding transaction 23
2023-02-03 12:06:16.705 DEBUG (SyncWorker_18) [pymodbus.transaction] Getting transaction 23
2023-02-03 12:06:16.705 DEBUG (SyncWorker_18) [pymodbus.transaction] Changing transaction state from "PROCESSING REPLY" to "TRANSACTION_COMPLETE"
2023-02-03 12:06:16.910 DEBUG (SyncWorker_7) [pymodbus.transaction] Current transaction state - TRANSACTION_COMPLETE
2023-02-03 12:06:16.911 DEBUG (SyncWorker_7) [pymodbus.transaction] Running transaction 24
2023-02-03 12:06:16.911 DEBUG (SyncWorker_7) [pymodbus.transaction] SEND: 0x0 0x18 0x0 0x0 0x0 0x6 0x1 0x4 0x0 0x24 0x0 0x2
2023-02-03 12:06:16.911 DEBUG (SyncWorker_7) [pymodbus.client.base] New Transaction state "SENDING"
2023-02-03 12:06:16.911 DEBUG (SyncWorker_7) [pymodbus.transaction] Changing transaction state from "SENDING" to "WAITING FOR REPLY"
2023-02-03 12:06:16.957 DEBUG (SyncWorker_7) [pymodbus.transaction] Changing transaction state from "WAITING FOR REPLY" to "PROCESSING REPLY"
2023-02-03 12:06:16.958 DEBUG (SyncWorker_7) [pymodbus.transaction] RECV: 0x0 0x18 0x0 0x0 0x0 0x7 0x1 0x4 0x4 0xbf 0x3f 0xdc 0x8e
2023-02-03 12:06:16.958 DEBUG (SyncWorker_7) [pymodbus.framer.socket_framer] Processing: 0x0 0x18 0x0 0x0 0x0 0x7 0x1 0x4 0x4 0xbf 0x3f 0xdc 0x8e
2023-02-03 12:06:16.958 DEBUG (SyncWorker_7) [pymodbus.factory] Factory Response[ReadInputRegistersResponse': 4]
2023-02-03 12:06:16.958 DEBUG (SyncWorker_7) [pymodbus.transaction] Adding transaction 24
2023-02-03 12:06:16.958 DEBUG (SyncWorker_7) [pymodbus.transaction] Getting transaction 24
2023-02-03 12:06:16.959 DEBUG (SyncWorker_7) [pymodbus.transaction] Changing transaction state from "PROCESSING REPLY" to "TRANSACTION_COMPLETE"
2023-02-03 12:06:17.162 DEBUG (SyncWorker_0) [pymodbus.transaction] Current transaction state - TRANSACTION_COMPLETE
2023-02-03 12:06:17.162 DEBUG (SyncWorker_0) [pymodbus.transaction] Running transaction 25
2023-02-03 12:06:17.162 DEBUG (SyncWorker_0) [pymodbus.transaction] SEND: 0x0 0x19 0x0 0x0 0x0 0x6 0x1 0x4 0x0 0x26 0x0 0x2
2023-02-03 12:06:17.162 DEBUG (SyncWorker_0) [pymodbus.client.base] New Transaction state "SENDING"
2023-02-03 12:06:17.163 DEBUG (SyncWorker_0) [pymodbus.transaction] Changing transaction state from "SENDING" to "WAITING FOR REPLY"
2023-02-03 12:06:17.204 DEBUG (SyncWorker_0) [pymodbus.transaction] Changing transaction state from "WAITING FOR REPLY" to "PROCESSING REPLY"
2023-02-03 12:06:17.204 DEBUG (SyncWorker_0) [pymodbus.transaction] RECV: 0x0 0x19 0x0 0x0 0x0 0x7 0x1 0x4 0x4 0x0 0x0 0x0 0x0
2023-02-03 12:06:17.204 DEBUG (SyncWorker_0) [pymodbus.framer.socket_framer] Processing: 0x0 0x19 0x0 0x0 0x0 0x7 0x1 0x4 0x4 0x0 0x0 0x0 0x0
2023-02-03 12:06:17.204 DEBUG (SyncWorker_0) [pymodbus.factory] Factory Response[ReadInputRegistersResponse': 4]
2023-02-03 12:06:17.204 DEBUG (SyncWorker_0) [pymodbus.transaction] Adding transaction 25
2023-02-03 12:06:17.204 DEBUG (SyncWorker_0) [pymodbus.transaction] Getting transaction 25
2023-02-03 12:06:17.205 DEBUG (SyncWorker_0) [pymodbus.transaction] Changing transaction state from "PROCESSING REPLY" to "TRANSACTION_COMPLETE"
2023-02-03 12:06:17.411 DEBUG (SyncWorker_1) [pymodbus.transaction] Current transaction state - TRANSACTION_COMPLETE
2023-02-03 12:06:17.412 DEBUG (SyncWorker_1) [pymodbus.transaction] Running transaction 26
2023-02-03 12:06:17.412 DEBUG (SyncWorker_1) [pymodbus.transaction] SEND: 0x0 0x1a 0x0 0x0 0x0 0x6 0x1 0x4 0x0 0x28 0x0 0x2
2023-02-03 12:06:17.412 DEBUG (SyncWorker_1) [pymodbus.client.base] New Transaction state "SENDING"
2023-02-03 12:06:17.413 DEBUG (SyncWorker_1) [pymodbus.transaction] Changing transaction state from "SENDING" to "WAITING FOR REPLY"
2023-02-03 12:06:17.456 DEBUG (SyncWorker_1) [pymodbus.transaction] Changing transaction state from "WAITING FOR REPLY" to "PROCESSING REPLY"
2023-02-03 12:06:17.456 DEBUG (SyncWorker_1) [pymodbus.transaction] RECV: 0x0 0x1a 0x0 0x0 0x0 0x7 0x1 0x4 0x4 0x3d 0xf9 0xc3 0xde
2023-02-03 12:06:17.456 DEBUG (SyncWorker_1) [pymodbus.framer.socket_framer] Processing: 0x0 0x1a 0x0 0x0 0x0 0x7 0x1 0x4 0x4 0x3d 0xf9 0xc3 0xde
2023-02-03 12:06:17.457 DEBUG (SyncWorker_1) [pymodbus.factory] Factory Response[ReadInputRegistersResponse': 4]
2023-02-03 12:06:17.457 DEBUG (SyncWorker_1) [pymodbus.transaction] Adding transaction 26
2023-02-03 12:06:17.457 DEBUG (SyncWorker_1) [pymodbus.transaction] Getting transaction 26
2023-02-03 12:06:17.457 DEBUG (SyncWorker_1) [pymodbus.transaction] Changing transaction state from "PROCESSING REPLY" to "TRANSACTION_COMPLETE"
2023-02-03 12:06:17.659 DEBUG (SyncWorker_4) [pymodbus.transaction] Current transaction state - TRANSACTION_COMPLETE
2023-02-03 12:06:17.659 DEBUG (SyncWorker_4) [pymodbus.transaction] Running transaction 27
2023-02-03 12:06:17.659 DEBUG (SyncWorker_4) [pymodbus.transaction] SEND: 0x0 0x1b 0x0 0x0 0x0 0x6 0x1 0x4 0x0 0x2a 0x0 0x2
2023-02-03 12:06:17.660 DEBUG (SyncWorker_4) [pymodbus.client.base] New Transaction state "SENDING"
2023-02-03 12:06:17.660 DEBUG (SyncWorker_4) [pymodbus.transaction] Changing transaction state from "SENDING" to "WAITING FOR REPLY"
2023-02-03 12:06:17.706 DEBUG (SyncWorker_4) [pymodbus.transaction] Changing transaction state from "WAITING FOR REPLY" to "PROCESSING REPLY"
2023-02-03 12:06:17.706 DEBUG (SyncWorker_4) [pymodbus.transaction] RECV: 0x0 0x1b 0x0 0x0 0x0 0x7 0x1 0x4 0x4 0x43 0x64 0x4c 0x23
2023-02-03 12:06:17.706 DEBUG (SyncWorker_4) [pymodbus.framer.socket_framer] Processing: 0x0 0x1b 0x0 0x0 0x0 0x7 0x1 0x4 0x4 0x43 0x64 0x4c 0x23
2023-02-03 12:06:17.706 DEBUG (SyncWorker_4) [pymodbus.factory] Factory Response[ReadInputRegistersResponse': 4]
2023-02-03 12:06:17.707 DEBUG (SyncWorker_4) [pymodbus.transaction] Adding transaction 27
2023-02-03 12:06:17.707 DEBUG (SyncWorker_4) [pymodbus.transaction] Getting transaction 27
2023-02-03 12:06:17.707 DEBUG (SyncWorker_4) [pymodbus.transaction] Changing transaction state from "PROCESSING REPLY" to "TRANSACTION_COMPLETE"
2023-02-03 12:06:17.915 DEBUG (SyncWorker_13) [pymodbus.transaction] Current transaction state - TRANSACTION_COMPLETE
2023-02-03 12:06:17.916 DEBUG (SyncWorker_13) [pymodbus.transaction] Running transaction 28
2023-02-03 12:06:17.916 DEBUG (SyncWorker_13) [pymodbus.transaction] SEND: 0x0 0x1c 0x0 0x0 0x0 0x6 0x1 0x4 0x0 0x2e 0x0 0x2
2023-02-03 12:06:17.916 DEBUG (SyncWorker_13) [pymodbus.client.base] New Transaction state "SENDING"
2023-02-03 12:06:17.918 DEBUG (SyncWorker_13) [pymodbus.transaction] Changing transaction state from "SENDING" to "WAITING FOR REPLY"
2023-02-03 12:06:17.980 DEBUG (SyncWorker_13) [pymodbus.transaction] Changing transaction state from "WAITING FOR REPLY" to "PROCESSING REPLY"
2023-02-03 12:06:17.980 DEBUG (SyncWorker_13) [pymodbus.transaction] RECV: 0x0 0x1c 0x0 0x0 0x0 0x7 0x1 0x4 0x4 0x3f 0x6f 0xf8 0x2d
2023-02-03 12:06:17.980 DEBUG (SyncWorker_13) [pymodbus.framer.socket_framer] Processing: 0x0 0x1c 0x0 0x0 0x0 0x7 0x1 0x4 0x4 0x3f 0x6f 0xf8 0x2d
2023-02-03 12:06:17.981 DEBUG (SyncWorker_13) [pymodbus.factory] Factory Response[ReadInputRegistersResponse': 4]
2023-02-03 12:06:17.981 DEBUG (SyncWorker_13) [pymodbus.transaction] Adding transaction 28
2023-02-03 12:06:17.981 DEBUG (SyncWorker_13) [pymodbus.transaction] Getting transaction 28
2023-02-03 12:06:17.981 DEBUG (SyncWorker_13) [pymodbus.transaction] Changing transaction state from "PROCESSING REPLY" to "TRANSACTION_COMPLETE"
2023-02-03 12:06:18.186 DEBUG (SyncWorker_10) [pymodbus.transaction] Current transaction state - TRANSACTION_COMPLETE
2023-02-03 12:06:18.186 DEBUG (SyncWorker_10) [pymodbus.transaction] Running transaction 29
2023-02-03 12:06:18.186 DEBUG (SyncWorker_10) [pymodbus.transaction] SEND: 0x0 0x1d 0x0 0x0 0x0 0x6 0x1 0x4 0x0 0x30 0x0 0x2
2023-02-03 12:06:18.187 DEBUG (SyncWorker_10) [pymodbus.client.base] New Transaction state "SENDING"
2023-02-03 12:06:18.187 DEBUG (SyncWorker_10) [pymodbus.transaction] Changing transaction state from "SENDING" to "WAITING FOR REPLY"
2023-02-03 12:06:18.231 DEBUG (SyncWorker_10) [pymodbus.transaction] Changing transaction state from "WAITING FOR REPLY" to "PROCESSING REPLY"
2023-02-03 12:06:18.232 DEBUG (SyncWorker_10) [pymodbus.transaction] RECV: 0x0 0x1d 0x0 0x0 0x0 0x7 0x1 0x4 0x4 0x40 0x31 0xca 0xfc
2023-02-03 12:06:18.232 DEBUG (SyncWorker_10) [pymodbus.framer.socket_framer] Processing: 0x0 0x1d 0x0 0x0 0x0 0x7 0x1 0x4 0x4 0x40 0x31 0xca 0xfc
2023-02-03 12:06:18.232 DEBUG (SyncWorker_10) [pymodbus.factory] Factory Response[ReadInputRegistersResponse': 4]
2023-02-03 12:06:18.233 DEBUG (SyncWorker_10) [pymodbus.transaction] Adding transaction 29
2023-02-03 12:06:18.233 DEBUG (SyncWorker_10) [pymodbus.transaction] Getting transaction 29
2023-02-03 12:06:18.233 DEBUG (SyncWorker_10) [pymodbus.transaction] Changing transaction state from "PROCESSING REPLY" to "TRANSACTION_COMPLETE"
2023-02-03 12:06:18.444 DEBUG (SyncWorker_18) [pymodbus.transaction] Current transaction state - TRANSACTION_COMPLETE
2023-02-03 12:06:18.444 DEBUG (SyncWorker_18) [pymodbus.transaction] Running transaction 30
2023-02-03 12:06:18.445 DEBUG (SyncWorker_18) [pymodbus.transaction] SEND: 0x0 0x1e 0x0 0x0 0x0 0x6 0x1 0x4 0x0 0x38 0x0 0x2
2023-02-03 12:06:18.445 DEBUG (SyncWorker_18) [pymodbus.client.base] New Transaction state "SENDING"
2023-02-03 12:06:18.445 DEBUG (SyncWorker_18) [pymodbus.transaction] Changing transaction state from "SENDING" to "WAITING FOR REPLY"
2023-02-03 12:06:18.490 DEBUG (SyncWorker_18) [pymodbus.transaction] Changing transaction state from "WAITING FOR REPLY" to "PROCESSING REPLY"
2023-02-03 12:06:18.491 DEBUG (SyncWorker_18) [pymodbus.transaction] RECV: 0x0 0x1e 0x0 0x0 0x0 0x7 0x1 0x4 0x4 0x44 0x15 0x46 0xde
2023-02-03 12:06:18.491 DEBUG (SyncWorker_18) [pymodbus.framer.socket_framer] Processing: 0x0 0x1e 0x0 0x0 0x0 0x7 0x1 0x4 0x4 0x44 0x15 0x46 0xde
2023-02-03 12:06:18.491 DEBUG (SyncWorker_18) [pymodbus.factory] Factory Response[ReadInputRegistersResponse': 4]
2023-02-03 12:06:18.491 DEBUG (SyncWorker_18) [pymodbus.transaction] Adding transaction 30
2023-02-03 12:06:18.491 DEBUG (SyncWorker_18) [pymodbus.transaction] Getting transaction 30
2023-02-03 12:06:18.492 DEBUG (SyncWorker_18) [pymodbus.transaction] Changing transaction state from "PROCESSING REPLY" to "TRANSACTION_COMPLETE"
2023-02-03 12:06:18.697 DEBUG (SyncWorker_11) [pymodbus.transaction] Current transaction state - TRANSACTION_COMPLETE
2023-02-03 12:06:18.698 DEBUG (SyncWorker_11) [pymodbus.transaction] Running transaction 31
2023-02-03 12:06:18.698 DEBUG (SyncWorker_11) [pymodbus.transaction] SEND: 0x0 0x1f 0x0 0x0 0x0 0x6 0x1 0x4 0x0 0x3c 0x0 0x2
2023-02-03 12:06:18.698 DEBUG (SyncWorker_11) [pymodbus.client.base] New Transaction state "SENDING"
2023-02-03 12:06:18.699 DEBUG (SyncWorker_11) [pymodbus.transaction] Changing transaction state from "SENDING" to "WAITING FOR REPLY"
2023-02-03 12:06:18.743 DEBUG (SyncWorker_11) [pymodbus.transaction] Changing transaction state from "WAITING FOR REPLY" to "PROCESSING REPLY"
2023-02-03 12:06:18.744 DEBUG (SyncWorker_11) [pymodbus.transaction] RECV: 0x0 0x1f 0x0 0x0 0x0 0x7 0x1 0x4 0x4 0x0 0x0 0x0 0x0
2023-02-03 12:06:18.744 DEBUG (SyncWorker_11) [pymodbus.framer.socket_framer] Processing: 0x0 0x1f 0x0 0x0 0x0 0x7 0x1 0x4 0x4 0x0 0x0 0x0 0x0
2023-02-03 12:06:18.744 DEBUG (SyncWorker_11) [pymodbus.factory] Factory Response[ReadInputRegistersResponse': 4]
2023-02-03 12:06:18.745 DEBUG (SyncWorker_11) [pymodbus.transaction] Adding transaction 31
2023-02-03 12:06:18.745 DEBUG (SyncWorker_11) [pymodbus.transaction] Getting transaction 31
2023-02-03 12:06:18.745 DEBUG (SyncWorker_11) [pymodbus.transaction] Changing transaction state from "PROCESSING REPLY" to "TRANSACTION_COMPLETE"
2023-02-03 12:06:18.949 DEBUG (SyncWorker_14) [pymodbus.transaction] Current transaction state - TRANSACTION_COMPLETE
2023-02-03 12:06:18.949 DEBUG (SyncWorker_14) [pymodbus.transaction] Running transaction 32
2023-02-03 12:06:18.949 DEBUG (SyncWorker_14) [pymodbus.transaction] SEND: 0x0 0x20 0x0 0x0 0x0 0x6 0x1 0x4 0x0 0x3e 0x0 0x2
2023-02-03 12:06:18.949 DEBUG (SyncWorker_14) [pymodbus.client.base] New Transaction state "SENDING"
2023-02-03 12:06:18.950 DEBUG (SyncWorker_14) [pymodbus.transaction] Changing transaction state from "SENDING" to "WAITING FOR REPLY"
2023-02-03 12:06:19.001 DEBUG (SyncWorker_14) [pymodbus.transaction] Changing transaction state from "WAITING FOR REPLY" to "PROCESSING REPLY"
2023-02-03 12:06:19.002 DEBUG (SyncWorker_14) [pymodbus.transaction] RECV: 0x0 0x20 0x0 0x0 0x0 0x7 0x1 0x4 0x4 0x3f 0x7f 0xff 0xea
2023-02-03 12:06:19.002 DEBUG (SyncWorker_14) [pymodbus.framer.socket_framer] Processing: 0x0 0x20 0x0 0x0 0x0 0x7 0x1 0x4 0x4 0x3f 0x7f 0xff 0xea
2023-02-03 12:06:19.002 DEBUG (SyncWorker_14) [pymodbus.factory] Factory Response[ReadInputRegistersResponse': 4]
2023-02-03 12:06:19.003 DEBUG (SyncWorker_14) [pymodbus.transaction] Adding transaction 32
2023-02-03 12:06:19.003 DEBUG (SyncWorker_14) [pymodbus.transaction] Getting transaction 32
2023-02-03 12:06:19.003 DEBUG (SyncWorker_14) [pymodbus.transaction] Changing transaction state from "PROCESSING REPLY" to "TRANSACTION_COMPLETE"
2023-02-03 12:06:19.215 DEBUG (SyncWorker_0) [pymodbus.transaction] Current transaction state - TRANSACTION_COMPLETE
2023-02-03 12:06:19.215 DEBUG (SyncWorker_0) [pymodbus.transaction] Running transaction 33
2023-02-03 12:06:19.215 DEBUG (SyncWorker_0) [pymodbus.transaction] SEND: 0x0 0x21 0x0 0x0 0x0 0x6 0x1 0x4 0x0 0x42 0x0 0x2
2023-02-03 12:06:19.215 DEBUG (SyncWorker_0) [pymodbus.client.base] New Transaction state "SENDING"
2023-02-03 12:06:19.216 DEBUG (SyncWorker_0) [pymodbus.transaction] Changing transaction state from "SENDING" to "WAITING FOR REPLY"
2023-02-03 12:06:19.262 DEBUG (SyncWorker_0) [pymodbus.transaction] Changing transaction state from "WAITING FOR REPLY" to "PROCESSING REPLY"
2023-02-03 12:06:19.262 DEBUG (SyncWorker_0) [pymodbus.transaction] RECV: 0x0 0x21 0x0 0x0 0x0 0x7 0x1 0x4 0x4 0xbe 0x62 0x7f 0xac
2023-02-03 12:06:19.262 DEBUG (SyncWorker_0) [pymodbus.framer.socket_framer] Processing: 0x0 0x21 0x0 0x0 0x0 0x7 0x1 0x4 0x4 0xbe 0x62 0x7f 0xac
2023-02-03 12:06:19.263 DEBUG (SyncWorker_0) [pymodbus.factory] Factory Response[ReadInputRegistersResponse': 4]
2023-02-03 12:06:19.263 DEBUG (SyncWorker_0) [pymodbus.transaction] Adding transaction 33
2023-02-03 12:06:19.263 DEBUG (SyncWorker_0) [pymodbus.transaction] Getting transaction 33
2023-02-03 12:06:19.263 DEBUG (SyncWorker_0) [pymodbus.transaction] Changing transaction state from "PROCESSING REPLY" to "TRANSACTION_COMPLETE"
2023-02-03 12:06:19.467 DEBUG (SyncWorker_15) [pymodbus.transaction] Current transaction state - TRANSACTION_COMPLETE
2023-02-03 12:06:19.467 DEBUG (SyncWorker_15) [pymodbus.transaction] Running transaction 34
2023-02-03 12:06:19.467 DEBUG (SyncWorker_15) [pymodbus.transaction] SEND: 0x0 0x22 0x0 0x0 0x0 0x6 0x1 0x4 0x0 0x46 0x0 0x2
2023-02-03 12:06:19.467 DEBUG (SyncWorker_15) [pymodbus.client.base] New Transaction state "SENDING"
2023-02-03 12:06:19.468 DEBUG (SyncWorker_15) [pymodbus.transaction] Changing transaction state from "SENDING" to "WAITING FOR REPLY"
2023-02-03 12:06:19.512 DEBUG (SyncWorker_15) [pymodbus.transaction] Changing transaction state from "WAITING FOR REPLY" to "PROCESSING REPLY"
2023-02-03 12:06:19.512 DEBUG (SyncWorker_15) [pymodbus.transaction] RECV: 0x0 0x22 0x0 0x0 0x0 0x7 0x1 0x4 0x4 0x42 0x48 0x2 0xbc
2023-02-03 12:06:19.512 DEBUG (SyncWorker_15) [pymodbus.framer.socket_framer] Processing: 0x0 0x22 0x0 0x0 0x0 0x7 0x1 0x4 0x4 0x42 0x48 0x2 0xbc
2023-02-03 12:06:19.513 DEBUG (SyncWorker_15) [pymodbus.factory] Factory Response[ReadInputRegistersResponse': 4]
2023-02-03 12:06:19.513 DEBUG (SyncWorker_15) [pymodbus.transaction] Adding transaction 34
2023-02-03 12:06:19.513 DEBUG (SyncWorker_15) [pymodbus.transaction] Getting transaction 34
2023-02-03 12:06:19.513 DEBUG (SyncWorker_15) [pymodbus.transaction] Changing transaction state from "PROCESSING REPLY" to "TRANSACTION_COMPLETE"
2023-02-03 12:06:19.717 DEBUG (SyncWorker_1) [pymodbus.transaction] Current transaction state - TRANSACTION_COMPLETE
2023-02-03 12:06:19.717 DEBUG (SyncWorker_1) [pymodbus.transaction] Running transaction 35
2023-02-03 12:06:19.717 DEBUG (SyncWorker_1) [pymodbus.transaction] SEND: 0x0 0x23 0x0 0x0 0x0 0x6 0x1 0x4 0x0 0x4c 0x0 0x2
2023-02-03 12:06:19.717 DEBUG (SyncWorker_1) [pymodbus.client.base] New Transaction state "SENDING"
2023-02-03 12:06:19.718 DEBUG (SyncWorker_1) [pymodbus.transaction] Changing transaction state from "SENDING" to "WAITING FOR REPLY"
2023-02-03 12:06:19.760 DEBUG (SyncWorker_1) [pymodbus.transaction] Changing transaction state from "WAITING FOR REPLY" to "PROCESSING REPLY"
2023-02-03 12:06:19.760 DEBUG (SyncWorker_1) [pymodbus.transaction] RECV: 0x0 0x23 0x0 0x0 0x0 0x7 0x1 0x4 0x4 0x43 0xdd 0x3 0x12
2023-02-03 12:06:19.760 DEBUG (SyncWorker_1) [pymodbus.framer.socket_framer] Processing: 0x0 0x23 0x0 0x0 0x0 0x7 0x1 0x4 0x4 0x43 0xdd 0x3 0x12
2023-02-03 12:06:19.760 DEBUG (SyncWorker_1) [pymodbus.factory] Factory Response[ReadInputRegistersResponse': 4]
2023-02-03 12:06:19.760 DEBUG (SyncWorker_1) [pymodbus.transaction] Adding transaction 35
2023-02-03 12:06:19.761 DEBUG (SyncWorker_1) [pymodbus.transaction] Getting transaction 35
2023-02-03 12:06:19.761 DEBUG (SyncWorker_1) [pymodbus.transaction] Changing transaction state from "PROCESSING REPLY" to "TRANSACTION_COMPLETE"
2023-02-03 12:06:19.963 DEBUG (SyncWorker_4) [pymodbus.transaction] Current transaction state - TRANSACTION_COMPLETE
2023-02-03 12:06:19.964 DEBUG (SyncWorker_4) [pymodbus.transaction] Running transaction 36
2023-02-03 12:06:19.964 DEBUG (SyncWorker_4) [pymodbus.transaction] SEND: 0x0 0x24 0x0 0x0 0x0 0x6 0x1 0x4 0x0 0x4e 0x0 0x2
2023-02-03 12:06:19.964 DEBUG (SyncWorker_4) [pymodbus.client.base] New Transaction state "SENDING"
2023-02-03 12:06:19.964 DEBUG (SyncWorker_4) [pymodbus.transaction] Changing transaction state from "SENDING" to "WAITING FOR REPLY"
2023-02-03 12:06:20.005 DEBUG (SyncWorker_4) [pymodbus.transaction] Changing transaction state from "WAITING FOR REPLY" to "PROCESSING REPLY"
2023-02-03 12:06:20.005 DEBUG (SyncWorker_4) [pymodbus.transaction] RECV: 0x0 0x24 0x0 0x0 0x0 0x7 0x1 0x4 0x4 0x42 0x0 0xba 0x5e
2023-02-03 12:06:20.005 DEBUG (SyncWorker_4) [pymodbus.framer.socket_framer] Processing: 0x0 0x24 0x0 0x0 0x0 0x7 0x1 0x4 0x4 0x42 0x0 0xba 0x5e
2023-02-03 12:06:20.006 DEBUG (SyncWorker_4) [pymodbus.factory] Factory Response[ReadInputRegistersResponse': 4]
2023-02-03 12:06:20.006 DEBUG (SyncWorker_4) [pymodbus.transaction] Adding transaction 36
2023-02-03 12:06:20.006 DEBUG (SyncWorker_4) [pymodbus.transaction] Getting transaction 36
2023-02-03 12:06:20.006 DEBUG (SyncWorker_4) [pymodbus.transaction] Changing transaction state from "PROCESSING REPLY" to "TRANSACTION_COMPLETE"
2023-02-03 12:06:20.211 DEBUG (SyncWorker_13) [pymodbus.transaction] Current transaction state - TRANSACTION_COMPLETE
2023-02-03 12:06:20.211 DEBUG (SyncWorker_13) [pymodbus.transaction] Running transaction 37
2023-02-03 12:06:20.211 DEBUG (SyncWorker_13) [pymodbus.transaction] SEND: 0x0 0x25 0x0 0x0 0x0 0x6 0x1 0x4 0x0 0x50 0x0 0x2
2023-02-03 12:06:20.212 DEBUG (SyncWorker_13) [pymodbus.client.base] New Transaction state "SENDING"
2023-02-03 12:06:20.212 DEBUG (SyncWorker_13) [pymodbus.transaction] Changing transaction state from "SENDING" to "WAITING FOR REPLY"
2023-02-03 12:06:20.256 DEBUG (SyncWorker_13) [pymodbus.transaction] Changing transaction state from "WAITING FOR REPLY" to "PROCESSING REPLY"
2023-02-03 12:06:20.257 DEBUG (SyncWorker_13) [pymodbus.transaction] RECV: 0x0 0x25 0x0 0x0 0x0 0x7 0x1 0x4 0x4 0x46 0x88 0x1e 0x31
2023-02-03 12:06:20.257 DEBUG (SyncWorker_13) [pymodbus.framer.socket_framer] Processing: 0x0 0x25 0x0 0x0 0x0 0x7 0x1 0x4 0x4 0x46 0x88 0x1e 0x31
2023-02-03 12:06:20.257 DEBUG (SyncWorker_13) [pymodbus.factory] Factory Response[ReadInputRegistersResponse': 4]
2023-02-03 12:06:20.258 DEBUG (SyncWorker_13) [pymodbus.transaction] Adding transaction 37
2023-02-03 12:06:20.258 DEBUG (SyncWorker_13) [pymodbus.transaction] Getting transaction 37
2023-02-03 12:06:20.258 DEBUG (SyncWorker_13) [pymodbus.transaction] Changing transaction state from "PROCESSING REPLY" to "TRANSACTION_COMPLETE"
2023-02-03 12:06:20.465 DEBUG (SyncWorker_10) [pymodbus.transaction] Current transaction state - TRANSACTION_COMPLETE
2023-02-03 12:06:20.465 DEBUG (SyncWorker_10) [pymodbus.transaction] Running transaction 38
2023-02-03 12:06:20.465 DEBUG (SyncWorker_10) [pymodbus.transaction] SEND: 0x0 0x26 0x0 0x0 0x0 0x6 0x1 0x4 0x0 0x52 0x0 0x2
2023-02-03 12:06:20.466 DEBUG (SyncWorker_10) [pymodbus.client.base] New Transaction state "SENDING"
2023-02-03 12:06:20.466 DEBUG (SyncWorker_10) [pymodbus.transaction] Changing transaction state from "SENDING" to "WAITING FOR REPLY"
2023-02-03 12:06:20.513 DEBUG (SyncWorker_10) [pymodbus.transaction] Changing transaction state from "WAITING FOR REPLY" to "PROCESSING REPLY"
2023-02-03 12:06:20.513 DEBUG (SyncWorker_10) [pymodbus.transaction] RECV: 0x0 0x26 0x0 0x0 0x0 0x7 0x1 0x4 0x4 0x48 0x0 0x0 0x0
2023-02-03 12:06:20.513 DEBUG (SyncWorker_10) [pymodbus.framer.socket_framer] Processing: 0x0 0x26 0x0 0x0 0x0 0x7 0x1 0x4 0x4 0x48 0x0 0x0 0x0
2023-02-03 12:06:20.514 DEBUG (SyncWorker_10) [pymodbus.factory] Factory Response[ReadInputRegistersResponse': 4]
2023-02-03 12:06:20.514 DEBUG (SyncWorker_10) [pymodbus.transaction] Adding transaction 38
2023-02-03 12:06:20.514 DEBUG (SyncWorker_10) [pymodbus.transaction] Getting transaction 38
2023-02-03 12:06:20.514 DEBUG (SyncWorker_10) [pymodbus.transaction] Changing transaction state from "PROCESSING REPLY" to "TRANSACTION_COMPLETE"
2023-02-03 12:06:20.720 DEBUG (SyncWorker_11) [pymodbus.transaction] Current transaction state - TRANSACTION_COMPLETE
2023-02-03 12:06:20.720 DEBUG (SyncWorker_11) [pymodbus.transaction] Running transaction 39
2023-02-03 12:06:20.721 DEBUG (SyncWorker_11) [pymodbus.transaction] SEND: 0x0 0x27 0x0 0x0 0x0 0x6 0x1 0x4 0x0 0x56 0x0 0x2
2023-02-03 12:06:20.721 DEBUG (SyncWorker_11) [pymodbus.client.base] New Transaction state "SENDING"
2023-02-03 12:06:20.722 DEBUG (SyncWorker_11) [pymodbus.transaction] Changing transaction state from "SENDING" to "WAITING FOR REPLY"
2023-02-03 12:06:20.764 DEBUG (SyncWorker_11) [pymodbus.transaction] Changing transaction state from "WAITING FOR REPLY" to "PROCESSING REPLY"
2023-02-03 12:06:20.764 DEBUG (SyncWorker_11) [pymodbus.transaction] RECV: 0x0 0x27 0x0 0x0 0x0 0x7 0x1 0x4 0x4 0x46 0x4b 0xe4 0x3
2023-02-03 12:06:20.764 DEBUG (SyncWorker_11) [pymodbus.framer.socket_framer] Processing: 0x0 0x27 0x0 0x0 0x0 0x7 0x1 0x4 0x4 0x46 0x4b 0xe4 0x3
2023-02-03 12:06:20.765 DEBUG (SyncWorker_11) [pymodbus.factory] Factory Response[ReadInputRegistersResponse': 4]
2023-02-03 12:06:20.765 DEBUG (SyncWorker_11) [pymodbus.transaction] Adding transaction 39
2023-02-03 12:06:20.765 DEBUG (SyncWorker_11) [pymodbus.transaction] Getting transaction 39
2023-02-03 12:06:20.765 DEBUG (SyncWorker_11) [pymodbus.transaction] Changing transaction state from "PROCESSING REPLY" to "TRANSACTION_COMPLETE"
2023-02-03 12:06:20.970 DEBUG (SyncWorker_14) [pymodbus.transaction] Current transaction state - TRANSACTION_COMPLETE
2023-02-03 12:06:20.971 DEBUG (SyncWorker_14) [pymodbus.transaction] Running transaction 40
2023-02-03 12:06:20.971 DEBUG (SyncWorker_14) [pymodbus.transaction] SEND: 0x0 0x28 0x0 0x0 0x0 0x6 0x1 0x4 0x0 0x64 0x0 0x2
2023-02-03 12:06:20.971 DEBUG (SyncWorker_14) [pymodbus.client.base] New Transaction state "SENDING"
2023-02-03 12:06:20.972 DEBUG (SyncWorker_14) [pymodbus.transaction] Changing transaction state from "SENDING" to "WAITING FOR REPLY"
2023-02-03 12:06:21.018 DEBUG (SyncWorker_14) [pymodbus.transaction] Changing transaction state from "WAITING FOR REPLY" to "PROCESSING REPLY"
2023-02-03 12:06:21.018 DEBUG (SyncWorker_14) [pymodbus.transaction] RECV: 0x0 0x28 0x0 0x0 0x0 0x7 0x1 0x4 0x4 0x43 0xd5 0xdd 0x8a
2023-02-03 12:06:21.018 DEBUG (SyncWorker_14) [pymodbus.framer.socket_framer] Processing: 0x0 0x28 0x0 0x0 0x0 0x7 0x1 0x4 0x4 0x43 0xd5 0xdd 0x8a
2023-02-03 12:06:21.019 DEBUG (SyncWorker_14) [pymodbus.factory] Factory Response[ReadInputRegistersResponse': 4]
2023-02-03 12:06:21.019 DEBUG (SyncWorker_14) [pymodbus.transaction] Adding transaction 40
2023-02-03 12:06:21.019 DEBUG (SyncWorker_14) [pymodbus.transaction] Getting transaction 40
2023-02-03 12:06:21.019 DEBUG (SyncWorker_14) [pymodbus.transaction] Changing transaction state from "PROCESSING REPLY" to "TRANSACTION_COMPLETE"
2023-02-03 12:06:21.223 DEBUG (SyncWorker_3) [pymodbus.transaction] Current transaction state - TRANSACTION_COMPLETE
2023-02-03 12:06:21.224 DEBUG (SyncWorker_3) [pymodbus.transaction] Running transaction 41
2023-02-03 12:06:21.224 DEBUG (SyncWorker_3) [pymodbus.transaction] SEND: 0x0 0x29 0x0 0x0 0x0 0x6 0x1 0x4 0x0 0x66 0x0 0x2
2023-02-03 12:06:21.224 DEBUG (SyncWorker_3) [pymodbus.client.base] New Transaction state "SENDING"
2023-02-03 12:06:21.226 DEBUG (SyncWorker_3) [pymodbus.transaction] Changing transaction state from "SENDING" to "WAITING FOR REPLY"
2023-02-03 12:06:21.268 DEBUG (SyncWorker_3) [pymodbus.transaction] Changing transaction state from "WAITING FOR REPLY" to "PROCESSING REPLY"
2023-02-03 12:06:21.269 DEBUG (SyncWorker_3) [pymodbus.transaction] RECV: 0x0 0x29 0x0 0x0 0x0 0x7 0x1 0x4 0x4 0x46 0x4b 0xe5 0x1c
2023-02-03 12:06:21.269 DEBUG (SyncWorker_3) [pymodbus.framer.socket_framer] Processing: 0x0 0x29 0x0 0x0 0x0 0x7 0x1 0x4 0x4 0x46 0x4b 0xe5 0x1c
2023-02-03 12:06:21.269 DEBUG (SyncWorker_3) [pymodbus.factory] Factory Response[ReadInputRegistersResponse': 4]
2023-02-03 12:06:21.270 DEBUG (SyncWorker_3) [pymodbus.transaction] Adding transaction 41
2023-02-03 12:06:21.270 DEBUG (SyncWorker_3) [pymodbus.transaction] Getting transaction 41
2023-02-03 12:06:21.270 DEBUG (SyncWorker_3) [pymodbus.transaction] Changing transaction state from "PROCESSING REPLY" to "TRANSACTION_COMPLETE"
2023-02-03 12:06:21.477 DEBUG (SyncWorker_0) [pymodbus.transaction] Current transaction state - TRANSACTION_COMPLETE
2023-02-03 12:06:21.477 DEBUG (SyncWorker_0) [pymodbus.transaction] Running transaction 42
2023-02-03 12:06:21.478 DEBUG (SyncWorker_0) [pymodbus.transaction] SEND: 0x0 0x2a 0x0 0x0 0x0 0x6 0x1 0x4 0x0 0x68 0x0 0x2
2023-02-03 12:06:21.478 DEBUG (SyncWorker_0) [pymodbus.client.base] New Transaction state "SENDING"
2023-02-03 12:06:21.482 DEBUG (SyncWorker_0) [pymodbus.transaction] Changing transaction state from "SENDING" to "WAITING FOR REPLY"
2023-02-03 12:06:21.520 DEBUG (SyncWorker_0) [pymodbus.transaction] Changing transaction state from "WAITING FOR REPLY" to "PROCESSING REPLY"
2023-02-03 12:06:21.520 DEBUG (SyncWorker_0) [pymodbus.transaction] RECV: 0x0 0x2a 0x0 0x0 0x0 0x7 0x1 0x4 0x4 0x3c 0x84 0x48 0xc5
2023-02-03 12:06:21.521 DEBUG (SyncWorker_0) [pymodbus.framer.socket_framer] Processing: 0x0 0x2a 0x0 0x0 0x0 0x7 0x1 0x4 0x4 0x3c 0x84 0x48 0xc5
2023-02-03 12:06:21.521 DEBUG (SyncWorker_0) [pymodbus.factory] Factory Response[ReadInputRegistersResponse': 4]
2023-02-03 12:06:21.521 DEBUG (SyncWorker_0) [pymodbus.transaction] Adding transaction 42
2023-02-03 12:06:21.522 DEBUG (SyncWorker_0) [pymodbus.transaction] Getting transaction 42
2023-02-03 12:06:21.522 DEBUG (SyncWorker_0) [pymodbus.transaction] Changing transaction state from "PROCESSING REPLY" to "TRANSACTION_COMPLETE"
2023-02-03 12:06:21.729 DEBUG (SyncWorker_15) [pymodbus.transaction] Current transaction state - TRANSACTION_COMPLETE
2023-02-03 12:06:21.729 DEBUG (SyncWorker_15) [pymodbus.transaction] Running transaction 43
2023-02-03 12:06:21.729 DEBUG (SyncWorker_15) [pymodbus.transaction] SEND: 0x0 0x2b 0x0 0x0 0x0 0x6 0x1 0x4 0x0 0x6a 0x0 0x2
2023-02-03 12:06:21.730 DEBUG (SyncWorker_15) [pymodbus.client.base] New Transaction state "SENDING"
2023-02-03 12:06:21.733 DEBUG (SyncWorker_15) [pymodbus.transaction] Changing transaction state from "SENDING" to "WAITING FOR REPLY"
2023-02-03 12:06:21.772 DEBUG (SyncWorker_15) [pymodbus.transaction] Changing transaction state from "WAITING FOR REPLY" to "PROCESSING REPLY"
2023-02-03 12:06:21.772 DEBUG (SyncWorker_15) [pymodbus.transaction] RECV: 0x0 0x2b 0x0 0x0 0x0 0x7 0x1 0x4 0x4 0x3e 0x18 0x3d 0x9a
2023-02-03 12:06:21.773 DEBUG (SyncWorker_15) [pymodbus.framer.socket_framer] Processing: 0x0 0x2b 0x0 0x0 0x0 0x7 0x1 0x4 0x4 0x3e 0x18 0x3d 0x9a
2023-02-03 12:06:21.773 DEBUG (SyncWorker_15) [pymodbus.factory] Factory Response[ReadInputRegistersResponse': 4]
2023-02-03 12:06:21.773 DEBUG (SyncWorker_15) [pymodbus.transaction] Adding transaction 43
2023-02-03 12:06:21.774 DEBUG (SyncWorker_15) [pymodbus.transaction] Getting transaction 43
2023-02-03 12:06:21.774 DEBUG (SyncWorker_15) [pymodbus.transaction] Changing transaction state from "PROCESSING REPLY" to "TRANSACTION_COMPLETE"
2023-02-03 12:06:21.980 DEBUG (SyncWorker_1) [pymodbus.transaction] Current transaction state - TRANSACTION_COMPLETE
2023-02-03 12:06:21.981 DEBUG (SyncWorker_1) [pymodbus.transaction] Running transaction 44
2023-02-03 12:06:21.981 DEBUG (SyncWorker_1) [pymodbus.transaction] SEND: 0x0 0x2c 0x0 0x0 0x0 0x6 0x1 0x4 0x0 0xc8 0x0 0x2
2023-02-03 12:06:21.981 DEBUG (SyncWorker_1) [pymodbus.client.base] New Transaction state "SENDING"
2023-02-03 12:06:21.984 DEBUG (SyncWorker_1) [pymodbus.transaction] Changing transaction state from "SENDING" to "WAITING FOR REPLY"
2023-02-03 12:06:22.027 DEBUG (SyncWorker_1) [pymodbus.transaction] Changing transaction state from "WAITING FOR REPLY" to "PROCESSING REPLY"
2023-02-03 12:06:22.027 DEBUG (SyncWorker_1) [pymodbus.transaction] RECV: 0x0 0x2c 0x0 0x0 0x0 0x7 0x1 0x4 0x4 0x43 0xc5 0xa6 0x2b
2023-02-03 12:06:22.028 DEBUG (SyncWorker_1) [pymodbus.framer.socket_framer] Processing: 0x0 0x2c 0x0 0x0 0x0 0x7 0x1 0x4 0x4 0x43 0xc5 0xa6 0x2b
2023-02-03 12:06:22.028 DEBUG (SyncWorker_1) [pymodbus.factory] Factory Response[ReadInputRegistersResponse': 4]
2023-02-03 12:06:22.029 DEBUG (SyncWorker_1) [pymodbus.transaction] Adding transaction 44
2023-02-03 12:06:22.029 DEBUG (SyncWorker_1) [pymodbus.transaction] Getting transaction 44
2023-02-03 12:06:22.029 DEBUG (SyncWorker_1) [pymodbus.transaction] Changing transaction state from "PROCESSING REPLY" to "TRANSACTION_COMPLETE"
2023-02-03 12:06:22.235 DEBUG (SyncWorker_4) [pymodbus.transaction] Current transaction state - TRANSACTION_COMPLETE
2023-02-03 12:06:22.236 DEBUG (SyncWorker_4) [pymodbus.transaction] Running transaction 45
2023-02-03 12:06:22.236 DEBUG (SyncWorker_4) [pymodbus.transaction] SEND: 0x0 0x2d 0x0 0x0 0x0 0x6 0x1 0x4 0x0 0xca 0x0 0x2
2023-02-03 12:06:22.237 DEBUG (SyncWorker_4) [pymodbus.client.base] New Transaction state "SENDING"
2023-02-03 12:06:22.237 DEBUG (SyncWorker_4) [pymodbus.transaction] Changing transaction state from "SENDING" to "WAITING FOR REPLY"
2023-02-03 12:06:22.281 DEBUG (SyncWorker_4) [pymodbus.transaction] Changing transaction state from "WAITING FOR REPLY" to "PROCESSING REPLY"
2023-02-03 12:06:22.282 DEBUG (SyncWorker_4) [pymodbus.transaction] RECV: 0x0 0x2d 0x0 0x0 0x0 0x7 0x1 0x4 0x4 0x43 0xc6 0x3d 0x6a
2023-02-03 12:06:22.282 DEBUG (SyncWorker_4) [pymodbus.framer.socket_framer] Processing: 0x0 0x2d 0x0 0x0 0x0 0x7 0x1 0x4 0x4 0x43 0xc6 0x3d 0x6a
2023-02-03 12:06:22.282 DEBUG (SyncWorker_4) [pymodbus.factory] Factory Response[ReadInputRegistersResponse': 4]
2023-02-03 12:06:22.282 DEBUG (SyncWorker_4) [pymodbus.transaction] Adding transaction 45
2023-02-03 12:06:22.283 DEBUG (SyncWorker_4) [pymodbus.transaction] Getting transaction 45
2023-02-03 12:06:22.283 DEBUG (SyncWorker_4) [pymodbus.transaction] Changing transaction state from "PROCESSING REPLY" to "TRANSACTION_COMPLETE"
2023-02-03 12:06:22.487 DEBUG (SyncWorker_13) [pymodbus.transaction] Current transaction state - TRANSACTION_COMPLETE
2023-02-03 12:06:22.487 DEBUG (SyncWorker_13) [pymodbus.transaction] Running transaction 46
2023-02-03 12:06:22.487 DEBUG (SyncWorker_13) [pymodbus.transaction] SEND: 0x0 0x2e 0x0 0x0 0x0 0x6 0x1 0x4 0x0 0xcc 0x0 0x2
2023-02-03 12:06:22.487 DEBUG (SyncWorker_13) [pymodbus.client.base] New Transaction state "SENDING"
2023-02-03 12:06:22.488 DEBUG (SyncWorker_13) [pymodbus.transaction] Changing transaction state from "SENDING" to "WAITING FOR REPLY"
2023-02-03 12:06:22.534 DEBUG (SyncWorker_13) [pymodbus.transaction] Changing transaction state from "WAITING FOR REPLY" to "PROCESSING REPLY"
2023-02-03 12:06:22.535 DEBUG (SyncWorker_13) [pymodbus.transaction] RECV: 0x0 0x2e 0x0 0x0 0x0 0x7 0x1 0x4 0x4 0x43 0xc5 0x76 0x81
2023-02-03 12:06:22.535 DEBUG (SyncWorker_13) [pymodbus.framer.socket_framer] Processing: 0x0 0x2e 0x0 0x0 0x0 0x7 0x1 0x4 0x4 0x43 0xc5 0x76 0x81
2023-02-03 12:06:22.535 DEBUG (SyncWorker_13) [pymodbus.factory] Factory Response[ReadInputRegistersResponse': 4]
2023-02-03 12:06:22.535 DEBUG (SyncWorker_13) [pymodbus.transaction] Adding transaction 46
2023-02-03 12:06:22.536 DEBUG (SyncWorker_13) [pymodbus.transaction] Getting transaction 46
2023-02-03 12:06:22.536 DEBUG (SyncWorker_13) [pymodbus.transaction] Changing transaction state from "PROCESSING REPLY" to "TRANSACTION_COMPLETE"
2023-02-03 12:06:22.744 DEBUG (SyncWorker_10) [pymodbus.transaction] Current transaction state - TRANSACTION_COMPLETE
2023-02-03 12:06:22.745 DEBUG (SyncWorker_10) [pymodbus.transaction] Running transaction 47
2023-02-03 12:06:22.745 DEBUG (SyncWorker_10) [pymodbus.transaction] SEND: 0x0 0x2f 0x0 0x0 0x0 0x6 0x1 0x4 0x0 0xce 0x0 0x2
2023-02-03 12:06:22.745 DEBUG (SyncWorker_10) [pymodbus.client.base] New Transaction state "SENDING"
2023-02-03 12:06:22.747 DEBUG (SyncWorker_10) [pymodbus.transaction] Changing transaction state from "SENDING" to "WAITING FOR REPLY"
2023-02-03 12:06:22.794 DEBUG (SyncWorker_10) [pymodbus.transaction] Changing transaction state from "WAITING FOR REPLY" to "PROCESSING REPLY"
2023-02-03 12:06:22.795 DEBUG (SyncWorker_10) [pymodbus.transaction] RECV: 0x0 0x2f 0x0 0x0 0x0 0x7 0x1 0x4 0x4 0x43 0xc5 0xd9 0xdb
2023-02-03 12:06:22.795 DEBUG (SyncWorker_10) [pymodbus.framer.socket_framer] Processing: 0x0 0x2f 0x0 0x0 0x0 0x7 0x1 0x4 0x4 0x43 0xc5 0xd9 0xdb
2023-02-03 12:06:22.795 DEBUG (SyncWorker_10) [pymodbus.factory] Factory Response[ReadInputRegistersResponse': 4]
2023-02-03 12:06:22.796 DEBUG (SyncWorker_10) [pymodbus.transaction] Adding transaction 47
2023-02-03 12:06:22.796 DEBUG (SyncWorker_10) [pymodbus.transaction] Getting transaction 47
2023-02-03 12:06:22.796 DEBUG (SyncWorker_10) [pymodbus.transaction] Changing transaction state from "PROCESSING REPLY" to "TRANSACTION_COMPLETE"
2023-02-03 12:06:23.004 DEBUG (SyncWorker_18) [pymodbus.transaction] Current transaction state - TRANSACTION_COMPLETE
2023-02-03 12:06:23.004 DEBUG (SyncWorker_18) [pymodbus.transaction] Running transaction 48
2023-02-03 12:06:23.004 DEBUG (SyncWorker_18) [pymodbus.transaction] SEND: 0x0 0x30 0x0 0x0 0x0 0x6 0x1 0x4 0x0 0xe0 0x0 0x2
2023-02-03 12:06:23.005 DEBUG (SyncWorker_18) [pymodbus.client.base] New Transaction state "SENDING"
2023-02-03 12:06:23.006 DEBUG (SyncWorker_18) [pymodbus.transaction] Changing transaction state from "SENDING" to "WAITING FOR REPLY"
2023-02-03 12:06:23.052 DEBUG (SyncWorker_18) [pymodbus.transaction] Changing transaction state from "WAITING FOR REPLY" to "PROCESSING REPLY"
2023-02-03 12:06:23.053 DEBUG (SyncWorker_18) [pymodbus.transaction] RECV: 0x0 0x30 0x0 0x0 0x0 0x7 0x1 0x4 0x4 0x3c 0x6c 0x82 0x8
2023-02-03 12:06:23.053 DEBUG (SyncWorker_18) [pymodbus.framer.socket_framer] Processing: 0x0 0x30 0x0 0x0 0x0 0x7 0x1 0x4 0x4 0x3c 0x6c 0x82 0x8
2023-02-03 12:06:23.053 DEBUG (SyncWorker_18) [pymodbus.factory] Factory Response[ReadInputRegistersResponse': 4]
2023-02-03 12:06:23.054 DEBUG (SyncWorker_18) [pymodbus.transaction] Adding transaction 48
2023-02-03 12:06:23.054 DEBUG (SyncWorker_18) [pymodbus.transaction] Getting transaction 48
2023-02-03 12:06:23.054 DEBUG (SyncWorker_18) [pymodbus.transaction] Changing transaction state from "PROCESSING REPLY" to "TRANSACTION_COMPLETE"
2023-02-03 12:06:23.259 DEBUG (SyncWorker_11) [pymodbus.transaction] Current transaction state - TRANSACTION_COMPLETE
2023-02-03 12:06:23.260 DEBUG (SyncWorker_11) [pymodbus.transaction] Running transaction 49
2023-02-03 12:06:23.260 DEBUG (SyncWorker_11) [pymodbus.transaction] SEND: 0x0 0x31 0x0 0x0 0x0 0x6 0x1 0x4 0x0 0xea 0x0 0x2
2023-02-03 12:06:23.260 DEBUG (SyncWorker_11) [pymodbus.client.base] New Transaction state "SENDING"
2023-02-03 12:06:23.261 DEBUG (SyncWorker_11) [pymodbus.transaction] Changing transaction state from "SENDING" to "WAITING FOR REPLY"
2023-02-03 12:06:23.306 DEBUG (SyncWorker_11) [pymodbus.transaction] Changing transaction state from "WAITING FOR REPLY" to "PROCESSING REPLY"
2023-02-03 12:06:23.307 DEBUG (SyncWorker_11) [pymodbus.transaction] RECV: 0x0 0x31 0x0 0x0 0x0 0x7 0x1 0x4 0x4 0x0 0x0 0x0 0x0
2023-02-03 12:06:23.307 DEBUG (SyncWorker_11) [pymodbus.framer.socket_framer] Processing: 0x0 0x31 0x0 0x0 0x0 0x7 0x1 0x4 0x4 0x0 0x0 0x0 0x0
2023-02-03 12:06:23.307 DEBUG (SyncWorker_11) [pymodbus.factory] Factory Response[ReadInputRegistersResponse': 4]
2023-02-03 12:06:23.307 DEBUG (SyncWorker_11) [pymodbus.transaction] Adding transaction 49
2023-02-03 12:06:23.307 DEBUG (SyncWorker_11) [pymodbus.transaction] Getting transaction 49
2023-02-03 12:06:23.308 DEBUG (SyncWorker_11) [pymodbus.transaction] Changing transaction state from "PROCESSING REPLY" to "TRANSACTION_COMPLETE"
2023-02-03 12:06:23.512 DEBUG (SyncWorker_14) [pymodbus.transaction] Current transaction state - TRANSACTION_COMPLETE
2023-02-03 12:06:23.512 DEBUG (SyncWorker_14) [pymodbus.transaction] Running transaction 50
2023-02-03 12:06:23.513 DEBUG (SyncWorker_14) [pymodbus.transaction] SEND: 0x0 0x32 0x0 0x0 0x0 0x6 0x1 0x4 0x0 0xec 0x0 0x2
2023-02-03 12:06:23.513 DEBUG (SyncWorker_14) [pymodbus.client.base] New Transaction state "SENDING"
2023-02-03 12:06:23.513 DEBUG (SyncWorker_14) [pymodbus.transaction] Changing transaction state from "SENDING" to "WAITING FOR REPLY"
2023-02-03 12:06:23.559 DEBUG (SyncWorker_14) [pymodbus.transaction] Changing transaction state from "WAITING FOR REPLY" to "PROCESSING REPLY"
2023-02-03 12:06:23.559 DEBUG (SyncWorker_14) [pymodbus.transaction] RECV: 0x0 0x32 0x0 0x0 0x0 0x7 0x1 0x4 0x4 0x40 0x43 0x46 0x77
2023-02-03 12:06:23.560 DEBUG (SyncWorker_14) [pymodbus.framer.socket_framer] Processing: 0x0 0x32 0x0 0x0 0x0 0x7 0x1 0x4 0x4 0x40 0x43 0x46 0x77
2023-02-03 12:06:23.560 DEBUG (SyncWorker_14) [pymodbus.factory] Factory Response[ReadInputRegistersResponse': 4]
2023-02-03 12:06:23.561 DEBUG (SyncWorker_14) [pymodbus.transaction] Adding transaction 50
2023-02-03 12:06:23.561 DEBUG (SyncWorker_14) [pymodbus.transaction] Getting transaction 50
2023-02-03 12:06:23.561 DEBUG (SyncWorker_14) [pymodbus.transaction] Changing transaction state from "PROCESSING REPLY" to "TRANSACTION_COMPLETE"
2023-02-03 12:06:23.770 DEBUG (SyncWorker_3) [pymodbus.transaction] Current transaction state - TRANSACTION_COMPLETE
2023-02-03 12:06:23.770 DEBUG (SyncWorker_3) [pymodbus.transaction] Running transaction 51
2023-02-03 12:06:23.771 DEBUG (SyncWorker_3) [pymodbus.transaction] SEND: 0x0 0x33 0x0 0x0 0x0 0x6 0x1 0x4 0x0 0xee 0x0 0x2
2023-02-03 12:06:23.771 DEBUG (SyncWorker_3) [pymodbus.client.base] New Transaction state "SENDING"
2023-02-03 12:06:23.774 DEBUG (SyncWorker_3) [pymodbus.transaction] Changing transaction state from "SENDING" to "WAITING FOR REPLY"
2023-02-03 12:06:23.815 DEBUG (SyncWorker_3) [pymodbus.transaction] Changing transaction state from "WAITING FOR REPLY" to "PROCESSING REPLY"
2023-02-03 12:06:23.816 DEBUG (SyncWorker_3) [pymodbus.transaction] RECV: 0x0 0x33 0x0 0x0 0x0 0x7 0x1 0x4 0x4 0x0 0x0 0x0 0x0
2023-02-03 12:06:23.816 DEBUG (SyncWorker_3) [pymodbus.framer.socket_framer] Processing: 0x0 0x33 0x0 0x0 0x0 0x7 0x1 0x4 0x4 0x0 0x0 0x0 0x0
2023-02-03 12:06:23.816 DEBUG (SyncWorker_3) [pymodbus.factory] Factory Response[ReadInputRegistersResponse': 4]
2023-02-03 12:06:23.817 DEBUG (SyncWorker_3) [pymodbus.transaction] Adding transaction 51
2023-02-03 12:06:23.817 DEBUG (SyncWorker_3) [pymodbus.transaction] Getting transaction 51
2023-02-03 12:06:23.817 DEBUG (SyncWorker_3) [pymodbus.transaction] Changing transaction state from "PROCESSING REPLY" to "TRANSACTION_COMPLETE"
2023-02-03 12:06:24.024 DEBUG (SyncWorker_0) [pymodbus.transaction] Current transaction state - TRANSACTION_COMPLETE
2023-02-03 12:06:24.024 DEBUG (SyncWorker_0) [pymodbus.transaction] Running transaction 52
2023-02-03 12:06:24.024 DEBUG (SyncWorker_0) [pymodbus.transaction] SEND: 0x0 0x34 0x0 0x0 0x0 0x6 0x1 0x4 0x0 0xf0 0x0 0x2
2023-02-03 12:06:24.024 DEBUG (SyncWorker_0) [pymodbus.client.base] New Transaction state "SENDING"
2023-02-03 12:06:24.028 DEBUG (SyncWorker_0) [pymodbus.transaction] Changing transaction state from "SENDING" to "WAITING FOR REPLY"
2023-02-03 12:06:24.071 DEBUG (SyncWorker_0) [pymodbus.transaction] Changing transaction state from "WAITING FOR REPLY" to "PROCESSING REPLY"
2023-02-03 12:06:24.071 DEBUG (SyncWorker_0) [pymodbus.transaction] RECV: 0x0 0x34 0x0 0x0 0x0 0x7 0x1 0x4 0x4 0x42 0xe 0xca 0x3b
2023-02-03 12:06:24.071 DEBUG (SyncWorker_0) [pymodbus.framer.socket_framer] Processing: 0x0 0x34 0x0 0x0 0x0 0x7 0x1 0x4 0x4 0x42 0xe 0xca 0x3b
2023-02-03 12:06:24.072 DEBUG (SyncWorker_0) [pymodbus.factory] Factory Response[ReadInputRegistersResponse': 4]
2023-02-03 12:06:24.072 DEBUG (SyncWorker_0) [pymodbus.transaction] Adding transaction 52
2023-02-03 12:06:24.072 DEBUG (SyncWorker_0) [pymodbus.transaction] Getting transaction 52
2023-02-03 12:06:24.073 DEBUG (SyncWorker_0) [pymodbus.transaction] Changing transaction state from "PROCESSING REPLY" to "TRANSACTION_COMPLETE"
2023-02-03 12:06:24.279 DEBUG (SyncWorker_15) [pymodbus.transaction] Current transaction state - TRANSACTION_COMPLETE
2023-02-03 12:06:24.280 DEBUG (SyncWorker_15) [pymodbus.transaction] Running transaction 53
2023-02-03 12:06:24.280 DEBUG (SyncWorker_15) [pymodbus.transaction] SEND: 0x0 0x35 0x0 0x0 0x0 0x6 0x1 0x4 0x0 0xf2 0x0 0x2
2023-02-03 12:06:24.280 DEBUG (SyncWorker_15) [pymodbus.client.base] New Transaction state "SENDING"
2023-02-03 12:06:24.282 DEBUG (SyncWorker_15) [pymodbus.transaction] Changing transaction state from "SENDING" to "WAITING FOR REPLY"
2023-02-03 12:06:24.343 DEBUG (SyncWorker_15) [pymodbus.transaction] Changing transaction state from "WAITING FOR REPLY" to "PROCESSING REPLY"
2023-02-03 12:06:24.343 DEBUG (SyncWorker_15) [pymodbus.transaction] RECV: 0x0 0x35 0x0 0x0 0x0 0x7 0x1 0x4 0x4 0x42 0x13 0x6f 0x15
2023-02-03 12:06:24.344 DEBUG (SyncWorker_15) [pymodbus.framer.socket_framer] Processing: 0x0 0x35 0x0 0x0 0x0 0x7 0x1 0x4 0x4 0x42 0x13 0x6f 0x15
2023-02-03 12:06:24.344 DEBUG (SyncWorker_15) [pymodbus.factory] Factory Response[ReadInputRegistersResponse': 4]
2023-02-03 12:06:24.344 DEBUG (SyncWorker_15) [pymodbus.transaction] Adding transaction 53
2023-02-03 12:06:24.344 DEBUG (SyncWorker_15) [pymodbus.transaction] Getting transaction 53
2023-02-03 12:06:24.344 DEBUG (SyncWorker_15) [pymodbus.transaction] Changing transaction state from "PROCESSING REPLY" to "TRANSACTION_COMPLETE"
2023-02-03 12:06:24.548 DEBUG (SyncWorker_1) [pymodbus.transaction] Current transaction state - TRANSACTION_COMPLETE
2023-02-03 12:06:24.548 DEBUG (SyncWorker_1) [pymodbus.transaction] Running transaction 54
2023-02-03 12:06:24.549 DEBUG (SyncWorker_1) [pymodbus.transaction] SEND: 0x0 0x36 0x0 0x0 0x0 0x6 0x1 0x4 0x0 0xf4 0x0 0x2
2023-02-03 12:06:24.549 DEBUG (SyncWorker_1) [pymodbus.client.base] New Transaction state "SENDING"
2023-02-03 12:06:24.549 DEBUG (SyncWorker_1) [pymodbus.transaction] Changing transaction state from "SENDING" to "WAITING FOR REPLY"
2023-02-03 12:06:24.595 DEBUG (SyncWorker_1) [pymodbus.transaction] Changing transaction state from "WAITING FOR REPLY" to "PROCESSING REPLY"
2023-02-03 12:06:24.596 DEBUG (SyncWorker_1) [pymodbus.transaction] RECV: 0x0 0x36 0x0 0x0 0x0 0x7 0x1 0x4 0x4 0x42 0x14 0x41 0xbe
2023-02-03 12:06:24.596 DEBUG (SyncWorker_1) [pymodbus.framer.socket_framer] Processing: 0x0 0x36 0x0 0x0 0x0 0x7 0x1 0x4 0x4 0x42 0x14 0x41 0xbe
2023-02-03 12:06:24.596 DEBUG (SyncWorker_1) [pymodbus.factory] Factory Response[ReadInputRegistersResponse': 4]
2023-02-03 12:06:24.597 DEBUG (SyncWorker_1) [pymodbus.transaction] Adding transaction 54
2023-02-03 12:06:24.597 DEBUG (SyncWorker_1) [pymodbus.transaction] Getting transaction 54
2023-02-03 12:06:24.597 DEBUG (SyncWorker_1) [pymodbus.transaction] Changing transaction state from "PROCESSING REPLY" to "TRANSACTION_COMPLETE"
2023-02-03 12:06:24.802 DEBUG (SyncWorker_4) [pymodbus.transaction] Current transaction state - TRANSACTION_COMPLETE
2023-02-03 12:06:24.802 DEBUG (SyncWorker_4) [pymodbus.transaction] Running transaction 55
2023-02-03 12:06:24.803 DEBUG (SyncWorker_4) [pymodbus.transaction] SEND: 0x0 0x37 0x0 0x0 0x0 0x6 0x1 0x4 0x0 0xf8 0x0 0x2
2023-02-03 12:06:24.803 DEBUG (SyncWorker_4) [pymodbus.client.base] New Transaction state "SENDING"
2023-02-03 12:06:24.804 DEBUG (SyncWorker_4) [pymodbus.transaction] Changing transaction state from "SENDING" to "WAITING FOR REPLY"
2023-02-03 12:06:24.855 DEBUG (SyncWorker_4) [pymodbus.transaction] Changing transaction state from "WAITING FOR REPLY" to "PROCESSING REPLY"
2023-02-03 12:06:24.855 DEBUG (SyncWorker_4) [pymodbus.transaction] RECV: 0x0 0x37 0x0 0x0 0x0 0x7 0x1 0x4 0x4 0x40 0x3f 0x17 0xdf
2023-02-03 12:06:24.856 DEBUG (SyncWorker_4) [pymodbus.framer.socket_framer] Processing: 0x0 0x37 0x0 0x0 0x0 0x7 0x1 0x4 0x4 0x40 0x3f 0x17 0xdf
2023-02-03 12:06:24.856 DEBUG (SyncWorker_4) [pymodbus.factory] Factory Response[ReadInputRegistersResponse': 4]
2023-02-03 12:06:24.856 DEBUG (SyncWorker_4) [pymodbus.transaction] Adding transaction 55
2023-02-03 12:06:24.856 DEBUG (SyncWorker_4) [pymodbus.transaction] Getting transaction 55
2023-02-03 12:06:24.857 DEBUG (SyncWorker_4) [pymodbus.transaction] Changing transaction state from "PROCESSING REPLY" to "TRANSACTION_COMPLETE"
2023-02-03 12:06:25.062 DEBUG (SyncWorker_13) [pymodbus.transaction] Current transaction state - TRANSACTION_COMPLETE
2023-02-03 12:06:25.062 DEBUG (SyncWorker_13) [pymodbus.transaction] Running transaction 56
2023-02-03 12:06:25.063 DEBUG (SyncWorker_13) [pymodbus.transaction] SEND: 0x0 0x38 0x0 0x0 0x0 0x6 0x1 0x4 0x0 0xfa 0x0 0x2
2023-02-03 12:06:25.063 DEBUG (SyncWorker_13) [pymodbus.client.base] New Transaction state "SENDING"
2023-02-03 12:06:25.064 DEBUG (SyncWorker_13) [pymodbus.transaction] Changing transaction state from "SENDING" to "WAITING FOR REPLY"
2023-02-03 12:06:25.112 DEBUG (SyncWorker_13) [pymodbus.transaction] Changing transaction state from "WAITING FOR REPLY" to "PROCESSING REPLY"
2023-02-03 12:06:25.112 DEBUG (SyncWorker_13) [pymodbus.transaction] RECV: 0x0 0x38 0x0 0x0 0x0 0x7 0x1 0x4 0x4 0x42 0xd 0xbf 0xe9
2023-02-03 12:06:25.113 DEBUG (SyncWorker_13) [pymodbus.framer.socket_framer] Processing: 0x0 0x38 0x0 0x0 0x0 0x7 0x1 0x4 0x4 0x42 0xd 0xbf 0xe9
2023-02-03 12:06:25.113 DEBUG (SyncWorker_13) [pymodbus.factory] Factory Response[ReadInputRegistersResponse': 4]
2023-02-03 12:06:25.113 DEBUG (SyncWorker_13) [pymodbus.transaction] Adding transaction 56
2023-02-03 12:06:25.113 DEBUG (SyncWorker_13) [pymodbus.transaction] Getting transaction 56
2023-02-03 12:06:25.113 DEBUG (SyncWorker_13) [pymodbus.transaction] Changing transaction state from "PROCESSING REPLY" to "TRANSACTION_COMPLETE"
2023-02-03 12:06:25.319 DEBUG (SyncWorker_10) [pymodbus.transaction] Current transaction state - TRANSACTION_COMPLETE
2023-02-03 12:06:25.319 DEBUG (SyncWorker_10) [pymodbus.transaction] Running transaction 57
2023-02-03 12:06:25.320 DEBUG (SyncWorker_10) [pymodbus.transaction] SEND: 0x0 0x39 0x0 0x0 0x0 0x6 0x1 0x4 0x1 0x2 0x0 0x2
2023-02-03 12:06:25.320 DEBUG (SyncWorker_10) [pymodbus.client.base] New Transaction state "SENDING"
2023-02-03 12:06:25.320 DEBUG (SyncWorker_10) [pymodbus.transaction] Changing transaction state from "SENDING" to "WAITING FOR REPLY"
2023-02-03 12:06:25.385 DEBUG (SyncWorker_10) [pymodbus.transaction] Changing transaction state from "WAITING FOR REPLY" to "PROCESSING REPLY"
2023-02-03 12:06:25.386 DEBUG (SyncWorker_10) [pymodbus.transaction] RECV: 0x0 0x39 0x0 0x0 0x0 0x7 0x1 0x4 0x4 0x3f 0x22 0xfb 0xc4
2023-02-03 12:06:25.386 DEBUG (SyncWorker_10) [pymodbus.framer.socket_framer] Processing: 0x0 0x39 0x0 0x0 0x0 0x7 0x1 0x4 0x4 0x3f 0x22 0xfb 0xc4
2023-02-03 12:06:25.386 DEBUG (SyncWorker_10) [pymodbus.factory] Factory Response[ReadInputRegistersResponse': 4]
2023-02-03 12:06:25.387 DEBUG (SyncWorker_10) [pymodbus.transaction] Adding transaction 57
2023-02-03 12:06:25.387 DEBUG (SyncWorker_10) [pymodbus.transaction] Getting transaction 57
2023-02-03 12:06:25.387 DEBUG (SyncWorker_10) [pymodbus.transaction] Changing transaction state from "PROCESSING REPLY" to "TRANSACTION_COMPLETE"
2023-02-03 12:06:25.591 DEBUG (SyncWorker_18) [pymodbus.transaction] Current transaction state - TRANSACTION_COMPLETE
2023-02-03 12:06:25.592 DEBUG (SyncWorker_18) [pymodbus.transaction] Running transaction 58
2023-02-03 12:06:25.592 DEBUG (SyncWorker_18) [pymodbus.transaction] SEND: 0x0 0x3a 0x0 0x0 0x0 0x6 0x1 0x4 0x1 0x4 0x0 0x2
2023-02-03 12:06:25.593 DEBUG (SyncWorker_18) [pymodbus.client.base] New Transaction state "SENDING"
2023-02-03 12:06:25.594 DEBUG (SyncWorker_18) [pymodbus.transaction] Changing transaction state from "SENDING" to "WAITING FOR REPLY"
2023-02-03 12:06:25.635 DEBUG (SyncWorker_18) [pymodbus.transaction] Changing transaction state from "WAITING FOR REPLY" to "PROCESSING REPLY"
2023-02-03 12:06:25.636 DEBUG (SyncWorker_18) [pymodbus.transaction] RECV: 0x0 0x3a 0x0 0x0 0x0 0x7 0x1 0x4 0x4 0x3f 0x1d 0x7e 0x7f
2023-02-03 12:06:25.636 DEBUG (SyncWorker_18) [pymodbus.framer.socket_framer] Processing: 0x0 0x3a 0x0 0x0 0x0 0x7 0x1 0x4 0x4 0x3f 0x1d 0x7e 0x7f
2023-02-03 12:06:25.636 DEBUG (SyncWorker_18) [pymodbus.factory] Factory Response[ReadInputRegistersResponse': 4]
2023-02-03 12:06:25.636 DEBUG (SyncWorker_18) [pymodbus.transaction] Adding transaction 58
2023-02-03 12:06:25.637 DEBUG (SyncWorker_18) [pymodbus.transaction] Getting transaction 58
2023-02-03 12:06:25.637 DEBUG (SyncWorker_18) [pymodbus.transaction] Changing transaction state from "PROCESSING REPLY" to "TRANSACTION_COMPLETE"
2023-02-03 12:06:25.842 DEBUG (SyncWorker_11) [pymodbus.transaction] Current transaction state - TRANSACTION_COMPLETE
2023-02-03 12:06:25.842 DEBUG (SyncWorker_11) [pymodbus.transaction] Running transaction 59
2023-02-03 12:06:25.842 DEBUG (SyncWorker_11) [pymodbus.transaction] SEND: 0x0 0x3b 0x0 0x0 0x0 0x6 0x1 0x4 0x1 0x6 0x0 0x2
2023-02-03 12:06:25.843 DEBUG (SyncWorker_11) [pymodbus.client.base] New Transaction state "SENDING"
2023-02-03 12:06:25.844 DEBUG (SyncWorker_11) [pymodbus.transaction] Changing transaction state from "SENDING" to "WAITING FOR REPLY"
2023-02-03 12:06:25.885 DEBUG (SyncWorker_11) [pymodbus.transaction] Changing transaction state from "WAITING FOR REPLY" to "PROCESSING REPLY"
2023-02-03 12:06:25.886 DEBUG (SyncWorker_11) [pymodbus.transaction] RECV: 0x0 0x3b 0x0 0x0 0x0 0x7 0x1 0x4 0x4 0x3f 0x22 0x4e 0x6a
2023-02-03 12:06:25.886 DEBUG (SyncWorker_11) [pymodbus.framer.socket_framer] Processing: 0x0 0x3b 0x0 0x0 0x0 0x7 0x1 0x4 0x4 0x3f 0x22 0x4e 0x6a
2023-02-03 12:06:25.886 DEBUG (SyncWorker_11) [pymodbus.factory] Factory Response[ReadInputRegistersResponse': 4]
2023-02-03 12:06:25.887 DEBUG (SyncWorker_11) [pymodbus.transaction] Adding transaction 59
2023-02-03 12:06:25.887 DEBUG (SyncWorker_11) [pymodbus.transaction] Getting transaction 59
2023-02-03 12:06:25.887 DEBUG (SyncWorker_11) [pymodbus.transaction] Changing transaction state from "PROCESSING REPLY" to "TRANSACTION_COMPLETE"
2023-02-03 12:06:26.092 DEBUG (SyncWorker_14) [pymodbus.transaction] Current transaction state - TRANSACTION_COMPLETE
2023-02-03 12:06:26.092 DEBUG (SyncWorker_14) [pymodbus.transaction] Running transaction 60
2023-02-03 12:06:26.093 DEBUG (SyncWorker_14) [pymodbus.transaction] SEND: 0x0 0x3c 0x0 0x0 0x0 0x6 0x1 0x4 0x1 0x8 0x0 0x2
2023-02-03 12:06:26.093 DEBUG (SyncWorker_14) [pymodbus.client.base] New Transaction state "SENDING"
2023-02-03 12:06:26.093 DEBUG (SyncWorker_14) [pymodbus.transaction] Changing transaction state from "SENDING" to "WAITING FOR REPLY"
2023-02-03 12:06:26.144 DEBUG (SyncWorker_14) [pymodbus.transaction] Changing transaction state from "WAITING FOR REPLY" to "PROCESSING REPLY"
2023-02-03 12:06:26.144 DEBUG (SyncWorker_14) [pymodbus.transaction] RECV: 0x0 0x3c 0x0 0x0 0x0 0x7 0x1 0x4 0x4 0x41 0x94 0x3c 0x42
2023-02-03 12:06:26.144 DEBUG (SyncWorker_14) [pymodbus.framer.socket_framer] Processing: 0x0 0x3c 0x0 0x0 0x0 0x7 0x1 0x4 0x4 0x41 0x94 0x3c 0x42
2023-02-03 12:06:26.145 DEBUG (SyncWorker_14) [pymodbus.factory] Factory Response[ReadInputRegistersResponse': 4]
2023-02-03 12:06:26.145 DEBUG (SyncWorker_14) [pymodbus.transaction] Adding transaction 60
2023-02-03 12:06:26.145 DEBUG (SyncWorker_14) [pymodbus.transaction] Getting transaction 60
2023-02-03 12:06:26.145 DEBUG (SyncWorker_14) [pymodbus.transaction] Changing transaction state from "PROCESSING REPLY" to "TRANSACTION_COMPLETE"
2023-02-03 12:06:26.353 DEBUG (SyncWorker_3) [pymodbus.transaction] Current transaction state - TRANSACTION_COMPLETE
2023-02-03 12:06:26.353 DEBUG (SyncWorker_3) [pymodbus.transaction] Running transaction 61
2023-02-03 12:06:26.353 DEBUG (SyncWorker_3) [pymodbus.transaction] SEND: 0x0 0x3d 0x0 0x0 0x0 0x6 0x1 0x4 0x1 0xa 0x0 0x2
2023-02-03 12:06:26.353 DEBUG (SyncWorker_3) [pymodbus.client.base] New Transaction state "SENDING"
2023-02-03 12:06:26.354 DEBUG (SyncWorker_3) [pymodbus.transaction] Changing transaction state from "SENDING" to "WAITING FOR REPLY"
2023-02-03 12:06:26.396 DEBUG (SyncWorker_3) [pymodbus.transaction] Changing transaction state from "WAITING FOR REPLY" to "PROCESSING REPLY"
2023-02-03 12:06:26.397 DEBUG (SyncWorker_3) [pymodbus.transaction] RECV: 0x0 0x3d 0x0 0x0 0x0 0x7 0x1 0x4 0x4 0x41 0x92 0x82 0x23
2023-02-03 12:06:26.397 DEBUG (SyncWorker_3) [pymodbus.framer.socket_framer] Processing: 0x0 0x3d 0x0 0x0 0x0 0x7 0x1 0x4 0x4 0x41 0x92 0x82 0x23
2023-02-03 12:06:26.397 DEBUG (SyncWorker_3) [pymodbus.factory] Factory Response[ReadInputRegistersResponse': 4]
2023-02-03 12:06:26.398 DEBUG (SyncWorker_3) [pymodbus.transaction] Adding transaction 61
2023-02-03 12:06:26.398 DEBUG (SyncWorker_3) [pymodbus.transaction] Getting transaction 61
2023-02-03 12:06:26.398 DEBUG (SyncWorker_3) [pymodbus.transaction] Changing transaction state from "PROCESSING REPLY" to "TRANSACTION_COMPLETE"
2023-02-03 12:06:26.604 DEBUG (SyncWorker_0) [pymodbus.transaction] Current transaction state - TRANSACTION_COMPLETE
2023-02-03 12:06:26.604 DEBUG (SyncWorker_0) [pymodbus.transaction] Running transaction 62
2023-02-03 12:06:26.604 DEBUG (SyncWorker_0) [pymodbus.transaction] SEND: 0x0 0x3e 0x0 0x0 0x0 0x6 0x1 0x4 0x1 0xc 0x0 0x2
2023-02-03 12:06:26.605 DEBUG (SyncWorker_0) [pymodbus.client.base] New Transaction state "SENDING"
2023-02-03 12:06:26.605 DEBUG (SyncWorker_0) [pymodbus.transaction] Changing transaction state from "SENDING" to "WAITING FOR REPLY"
2023-02-03 12:06:26.648 DEBUG (SyncWorker_0) [pymodbus.transaction] Changing transaction state from "WAITING FOR REPLY" to "PROCESSING REPLY"
2023-02-03 12:06:26.648 DEBUG (SyncWorker_0) [pymodbus.transaction] RECV: 0x0 0x3e 0x0 0x0 0x0 0x7 0x1 0x4 0x4 0x41 0x92 0xc9 0xe1
2023-02-03 12:06:26.649 DEBUG (SyncWorker_0) [pymodbus.framer.socket_framer] Processing: 0x0 0x3e 0x0 0x0 0x0 0x7 0x1 0x4 0x4 0x41 0x92 0xc9 0xe1
2023-02-03 12:06:26.649 DEBUG (SyncWorker_0) [pymodbus.factory] Factory Response[ReadInputRegistersResponse': 4]
2023-02-03 12:06:26.649 DEBUG (SyncWorker_0) [pymodbus.transaction] Adding transaction 62
2023-02-03 12:06:26.650 DEBUG (SyncWorker_0) [pymodbus.transaction] Getting transaction 62
2023-02-03 12:06:26.650 DEBUG (SyncWorker_0) [pymodbus.transaction] Changing transaction state from "PROCESSING REPLY" to "TRANSACTION_COMPLETE"
2023-02-03 12:06:26.854 DEBUG (SyncWorker_15) [pymodbus.transaction] Current transaction state - TRANSACTION_COMPLETE
2023-02-03 12:06:26.855 DEBUG (SyncWorker_15) [pymodbus.transaction] Running transaction 63
2023-02-03 12:06:26.855 DEBUG (SyncWorker_15) [pymodbus.transaction] SEND: 0x0 0x3f 0x0 0x0 0x0 0x6 0x1 0x4 0x1 0x4e 0x0 0x2
2023-02-03 12:06:26.855 DEBUG (SyncWorker_15) [pymodbus.client.base] New Transaction state "SENDING"
2023-02-03 12:06:26.856 DEBUG (SyncWorker_15) [pymodbus.transaction] Changing transaction state from "SENDING" to "WAITING FOR REPLY"
2023-02-03 12:06:26.899 DEBUG (SyncWorker_15) [pymodbus.transaction] Changing transaction state from "WAITING FOR REPLY" to "PROCESSING REPLY"
2023-02-03 12:06:26.899 DEBUG (SyncWorker_15) [pymodbus.transaction] RECV: 0x0 0x3f 0x0 0x0 0x0 0x7 0x1 0x4 0x4 0x0 0x0 0x0 0x0
2023-02-03 12:06:26.900 DEBUG (SyncWorker_15) [pymodbus.framer.socket_framer] Processing: 0x0 0x3f 0x0 0x0 0x0 0x7 0x1 0x4 0x4 0x0 0x0 0x0 0x0
2023-02-03 12:06:26.900 DEBUG (SyncWorker_15) [pymodbus.factory] Factory Response[ReadInputRegistersResponse': 4]
2023-02-03 12:06:26.900 DEBUG (SyncWorker_15) [pymodbus.transaction] Adding transaction 63
2023-02-03 12:06:26.900 DEBUG (SyncWorker_15) [pymodbus.transaction] Getting transaction 63
2023-02-03 12:06:26.901 DEBUG (SyncWorker_15) [pymodbus.transaction] Changing transaction state from "PROCESSING REPLY" to "TRANSACTION_COMPLETE"
2023-02-03 12:06:27.104 DEBUG (SyncWorker_1) [pymodbus.transaction] Current transaction state - TRANSACTION_COMPLETE
2023-02-03 12:06:27.105 DEBUG (SyncWorker_1) [pymodbus.transaction] Running transaction 64
2023-02-03 12:06:27.105 DEBUG (SyncWorker_1) [pymodbus.transaction] SEND: 0x0 0x40 0x0 0x0 0x0 0x6 0x1 0x4 0x1 0x50 0x0 0x2
2023-02-03 12:06:27.105 DEBUG (SyncWorker_1) [pymodbus.client.base] New Transaction state "SENDING"
2023-02-03 12:06:27.106 DEBUG (SyncWorker_1) [pymodbus.transaction] Changing transaction state from "SENDING" to "WAITING FOR REPLY"
2023-02-03 12:06:27.149 DEBUG (SyncWorker_1) [pymodbus.transaction] Changing transaction state from "WAITING FOR REPLY" to "PROCESSING REPLY"
2023-02-03 12:06:27.149 DEBUG (SyncWorker_1) [pymodbus.transaction] RECV: 0x0 0x40 0x0 0x0 0x0 0x7 0x1 0x4 0x4 0x0 0x0 0x0 0x0
2023-02-03 12:06:27.150 DEBUG (SyncWorker_1) [pymodbus.framer.socket_framer] Processing: 0x0 0x40 0x0 0x0 0x0 0x7 0x1 0x4 0x4 0x0 0x0 0x0 0x0
2023-02-03 12:06:27.150 DEBUG (SyncWorker_1) [pymodbus.factory] Factory Response[ReadInputRegistersResponse': 4]
2023-02-03 12:06:27.150 DEBUG (SyncWorker_1) [pymodbus.transaction] Adding transaction 64
2023-02-03 12:06:27.150 DEBUG (SyncWorker_1) [pymodbus.transaction] Getting transaction 64
2023-02-03 12:06:27.151 DEBUG (SyncWorker_1) [pymodbus.transaction] Changing transaction state from "PROCESSING REPLY" to "TRANSACTION_COMPLETE"
2023-02-03 12:06:27.356 DEBUG (SyncWorker_4) [pymodbus.transaction] Current transaction state - TRANSACTION_COMPLETE
2023-02-03 12:06:27.356 DEBUG (SyncWorker_4) [pymodbus.transaction] Running transaction 65
2023-02-03 12:06:27.356 DEBUG (SyncWorker_4) [pymodbus.transaction] SEND: 0x0 0x41 0x0 0x0 0x0 0x6 0x1 0x4 0x1 0x52 0x0 0x2
2023-02-03 12:06:27.357 DEBUG (SyncWorker_4) [pymodbus.client.base] New Transaction state "SENDING"
2023-02-03 12:06:27.358 DEBUG (SyncWorker_4) [pymodbus.transaction] Changing transaction state from "SENDING" to "WAITING FOR REPLY"
2023-02-03 12:06:27.409 DEBUG (SyncWorker_4) [pymodbus.transaction] Changing transaction state from "WAITING FOR REPLY" to "PROCESSING REPLY"
2023-02-03 12:06:27.409 DEBUG (SyncWorker_4) [pymodbus.transaction] RECV: 0x0 0x41 0x0 0x0 0x0 0x7 0x1 0x4 0x4 0x0 0x0 0x0 0x0
2023-02-03 12:06:27.409 DEBUG (SyncWorker_4) [pymodbus.framer.socket_framer] Processing: 0x0 0x41 0x0 0x0 0x0 0x7 0x1 0x4 0x4 0x0 0x0 0x0 0x0
2023-02-03 12:06:27.409 DEBUG (SyncWorker_4) [pymodbus.factory] Factory Response[ReadInputRegistersResponse': 4]
2023-02-03 12:06:27.410 DEBUG (SyncWorker_4) [pymodbus.transaction] Adding transaction 65
2023-02-03 12:06:27.410 DEBUG (SyncWorker_4) [pymodbus.transaction] Getting transaction 65
2023-02-03 12:06:27.410 DEBUG (SyncWorker_4) [pymodbus.transaction] Changing transaction state from "PROCESSING REPLY" to "TRANSACTION_COMPLETE"
2023-02-03 12:06:27.613 DEBUG (SyncWorker_13) [pymodbus.transaction] Current transaction state - TRANSACTION_COMPLETE
2023-02-03 12:06:27.613 DEBUG (SyncWorker_13) [pymodbus.transaction] Running transaction 66
2023-02-03 12:06:27.613 DEBUG (SyncWorker_13) [pymodbus.transaction] SEND: 0x0 0x42 0x0 0x0 0x0 0x6 0x1 0x4 0x1 0x54 0x0 0x2
2023-02-03 12:06:27.614 DEBUG (SyncWorker_13) [pymodbus.client.base] New Transaction state "SENDING"
2023-02-03 12:06:27.614 DEBUG (SyncWorker_13) [pymodbus.transaction] Changing transaction state from "SENDING" to "WAITING FOR REPLY"
2023-02-03 12:06:27.659 DEBUG (SyncWorker_13) [pymodbus.transaction] Changing transaction state from "WAITING FOR REPLY" to "PROCESSING REPLY"
2023-02-03 12:06:27.659 DEBUG (SyncWorker_13) [pymodbus.transaction] RECV: 0x0 0x42 0x0 0x0 0x0 0x7 0x1 0x4 0x4 0x0 0x0 0x0 0x0
2023-02-03 12:06:27.659 DEBUG (SyncWorker_13) [pymodbus.framer.socket_framer] Processing: 0x0 0x42 0x0 0x0 0x0 0x7 0x1 0x4 0x4 0x0 0x0 0x0 0x0
2023-02-03 12:06:27.659 DEBUG (SyncWorker_13) [pymodbus.factory] Factory Response[ReadInputRegistersResponse': 4]
2023-02-03 12:06:27.659 DEBUG (SyncWorker_13) [pymodbus.transaction] Adding transaction 66
2023-02-03 12:06:27.659 DEBUG (SyncWorker_13) [pymodbus.transaction] Getting transaction 66
2023-02-03 12:06:27.660 DEBUG (SyncWorker_13) [pymodbus.transaction] Changing transaction state from "PROCESSING REPLY" to "TRANSACTION_COMPLETE"
2023-02-03 12:06:27.862 DEBUG (SyncWorker_10) [pymodbus.transaction] Current transaction state - TRANSACTION_COMPLETE
2023-02-03 12:06:27.862 DEBUG (SyncWorker_10) [pymodbus.transaction] Running transaction 67
2023-02-03 12:06:27.863 DEBUG (SyncWorker_10) [pymodbus.transaction] SEND: 0x0 0x43 0x0 0x0 0x0 0x6 0x1 0x4 0x1 0x58 0x0 0x2
2023-02-03 12:06:27.863 DEBUG (SyncWorker_10) [pymodbus.client.base] New Transaction state "SENDING"
2023-02-03 12:06:27.863 DEBUG (SyncWorker_10) [pymodbus.transaction] Changing transaction state from "SENDING" to "WAITING FOR REPLY"
2023-02-03 12:06:27.907 DEBUG (SyncWorker_10) [pymodbus.transaction] Changing transaction state from "WAITING FOR REPLY" to "PROCESSING REPLY"
2023-02-03 12:06:27.907 DEBUG (SyncWorker_10) [pymodbus.transaction] RECV: 0x0 0x43 0x0 0x0 0x0 0x7 0x1 0x4 0x4 0x43 0xed 0x1a 0x5e
2023-02-03 12:06:27.907 DEBUG (SyncWorker_10) [pymodbus.framer.socket_framer] Processing: 0x0 0x43 0x0 0x0 0x0 0x7 0x1 0x4 0x4 0x43 0xed 0x1a 0x5e
2023-02-03 12:06:27.908 DEBUG (SyncWorker_10) [pymodbus.factory] Factory Response[ReadInputRegistersResponse': 4]
2023-02-03 12:06:27.908 DEBUG (SyncWorker_10) [pymodbus.transaction] Adding transaction 67
2023-02-03 12:06:27.908 DEBUG (SyncWorker_10) [pymodbus.transaction] Getting transaction 67
2023-02-03 12:06:27.908 DEBUG (SyncWorker_10) [pymodbus.transaction] Changing transaction state from "PROCESSING REPLY" to "TRANSACTION_COMPLETE"
2023-02-03 12:06:28.112 DEBUG (SyncWorker_18) [pymodbus.transaction] Current transaction state - TRANSACTION_COMPLETE
2023-02-03 12:06:28.113 DEBUG (SyncWorker_18) [pymodbus.transaction] Running transaction 68
2023-02-03 12:06:28.113 DEBUG (SyncWorker_18) [pymodbus.transaction] SEND: 0x0 0x44 0x0 0x0 0x0 0x6 0x1 0x4 0x1 0x5a 0x0 0x2
2023-02-03 12:06:28.113 DEBUG (SyncWorker_18) [pymodbus.client.base] New Transaction state "SENDING"
2023-02-03 12:06:28.114 DEBUG (SyncWorker_18) [pymodbus.transaction] Changing transaction state from "SENDING" to "WAITING FOR REPLY"
2023-02-03 12:06:28.164 DEBUG (SyncWorker_18) [pymodbus.transaction] Changing transaction state from "WAITING FOR REPLY" to "PROCESSING REPLY"
2023-02-03 12:06:28.165 DEBUG (SyncWorker_18) [pymodbus.transaction] RECV: 0x0 0x44 0x0 0x0 0x0 0x7 0x1 0x4 0x4 0x45 0xb5 0x90 0xfc
2023-02-03 12:06:28.165 DEBUG (SyncWorker_18) [pymodbus.framer.socket_framer] Processing: 0x0 0x44 0x0 0x0 0x0 0x7 0x1 0x4 0x4 0x45 0xb5 0x90 0xfc
2023-02-03 12:06:28.165 DEBUG (SyncWorker_18) [pymodbus.factory] Factory Response[ReadInputRegistersResponse': 4]
2023-02-03 12:06:28.166 DEBUG (SyncWorker_18) [pymodbus.transaction] Adding transaction 68
2023-02-03 12:06:28.166 DEBUG (SyncWorker_18) [pymodbus.transaction] Getting transaction 68
2023-02-03 12:06:28.166 DEBUG (SyncWorker_18) [pymodbus.transaction] Changing transaction state from "PROCESSING REPLY" to "TRANSACTION_COMPLETE"
2023-02-03 12:06:28.370 DEBUG (SyncWorker_11) [pymodbus.transaction] Current transaction state - TRANSACTION_COMPLETE
2023-02-03 12:06:28.371 DEBUG (SyncWorker_11) [pymodbus.transaction] Running transaction 69
2023-02-03 12:06:28.371 DEBUG (SyncWorker_11) [pymodbus.transaction] SEND: 0x0 0x45 0x0 0x0 0x0 0x6 0x1 0x4 0x1 0x5c 0x0 0x2
2023-02-03 12:06:28.371 DEBUG (SyncWorker_11) [pymodbus.client.base] New Transaction state "SENDING"
2023-02-03 12:06:28.372 DEBUG (SyncWorker_11) [pymodbus.transaction] Changing transaction state from "SENDING" to "WAITING FOR REPLY"
2023-02-03 12:06:28.416 DEBUG (SyncWorker_11) [pymodbus.transaction] Changing transaction state from "WAITING FOR REPLY" to "PROCESSING REPLY"
2023-02-03 12:06:28.417 DEBUG (SyncWorker_11) [pymodbus.transaction] RECV: 0x0 0x45 0x0 0x0 0x0 0x7 0x1 0x4 0x4 0x45 0xb5 0x4c 0x60
2023-02-03 12:06:28.417 DEBUG (SyncWorker_11) [pymodbus.framer.socket_framer] Processing: 0x0 0x45 0x0 0x0 0x0 0x7 0x1 0x4 0x4 0x45 0xb5 0x4c 0x60
2023-02-03 12:06:28.418 DEBUG (SyncWorker_11) [pymodbus.factory] Factory Response[ReadInputRegistersResponse': 4]
2023-02-03 12:06:28.418 DEBUG (SyncWorker_11) [pymodbus.transaction] Adding transaction 69
2023-02-03 12:06:28.418 DEBUG (SyncWorker_11) [pymodbus.transaction] Getting transaction 69
2023-02-03 12:06:28.418 DEBUG (SyncWorker_11) [pymodbus.transaction] Changing transaction state from "PROCESSING REPLY" to "TRANSACTION_COMPLETE"
2023-02-03 12:06:28.624 DEBUG (SyncWorker_14) [pymodbus.transaction] Current transaction state - TRANSACTION_COMPLETE
2023-02-03 12:06:28.624 DEBUG (SyncWorker_14) [pymodbus.transaction] Running transaction 70
2023-02-03 12:06:28.625 DEBUG (SyncWorker_14) [pymodbus.transaction] SEND: 0x0 0x46 0x0 0x0 0x0 0x6 0x1 0x4 0x1 0x5e 0x0 0x2
2023-02-03 12:06:28.625 DEBUG (SyncWorker_14) [pymodbus.client.base] New Transaction state "SENDING"
2023-02-03 12:06:28.631 DEBUG (SyncWorker_14) [pymodbus.transaction] Changing transaction state from "SENDING" to "WAITING FOR REPLY"
2023-02-03 12:06:28.671 DEBUG (SyncWorker_14) [pymodbus.transaction] Changing transaction state from "WAITING FOR REPLY" to "PROCESSING REPLY"
2023-02-03 12:06:28.671 DEBUG (SyncWorker_14) [pymodbus.transaction] RECV: 0x0 0x46 0x0 0x0 0x0 0x7 0x1 0x4 0x4 0x45 0xb5 0x3d 0xf6
